Time Stamp,ID,Extended,Dir,Bus,LEN,D1,D2,D3,D4,D5,D6,D7,D8
44361873,00000603,false,Rx,0,1,00,00,00,00,00,00,00,00,
44362922,0000068C,false,Rx,0,1,00,00,00,00,00,00,00,00,
44402630,000001D4,false,Rx,0,8,A0,6D,00,00,42,00,50,FB,
44402903,000001F2,false,Rx,0,8,08,64,00,00,00,01,01,06,
44403118,000005A9,false,Rx,0,8,FF,FF,FC,FF,FF,F0,00,00,
44408989,0000054A,false,Rx,0,8,9E,00,70,02,00,00,00,3D,
44410040,0000054B,false,Rx,0,8,00,08,80,00,04,00,00,00,
44411032,0000054C,false,Rx,0,8,FF,FF,00,00,00,F8,FF,00,
44412020,0000054F,false,Rx,0,8,14,00,00,00,07,40,00,1E,
44413009,000001D4,false,Rx,0,8,9C,6D,00,00,82,00,50,83,
44413225,000001F2,false,Rx,0,8,08,64,00,00,00,01,02,07,
44413445,0000050A,false,Rx,0,6,04,00,00,1D,00,20,00,00,
44413540,0000056E,false,Rx,0,1,46,00,00,00,00,00,00,00,
44423110,000001D4,false,Rx,0,8,9F,6D,00,00,C2,00,50,4D,
44423390,000001F2,false,Rx,0,8,08,64,00,00,00,01,03,08,
44433367,000001D4,false,Rx,0,8,9F,6D,00,00,02,00,50,81,
44433639,000001F2,false,Rx,0,8,08,64,00,00,00,01,00,05,
44433852,0000050B,false,Rx,0,6,00,00,00,C0,00,60,00,00,
44437164,0000011A,false,Rx,0,8,00,40,80,55,00,00,01,0D,
44443636,000001D4,false,Rx,0,8,9F,6D,00,00,42,06,50,3E,
44443909,000001F2,false,Rx,0,8,08,64,00,00,00,01,01,06,
44447194,0000011A,false,Rx,0,8,00,40,80,55,40,00,02,C0,
44453924,000001D4,false,Rx,0,8,9F,6D,00,00,82,06,70,B1,
44454143,000001F2,false,Rx,0,8,08,64,00,00,00,02,02,08,
44457288,0000011A,false,Rx,0,8,00,40,80,AA,80,00,03,D6,
44464109,000001D4,false,Rx,0,8,9F,6D,00,00,C2,06,70,76,
44464389,000001F2,false,Rx,0,8,08,64,00,00,00,02,03,09,
44466808,0000011A,false,Rx,0,8,00,40,80,AA,C0,00,00,1B,
44474376,000001D4,false,Rx,0,8,9F,6D,00,00,02,06,70,BA,
44474649,000001F2,false,Rx,0,8,08,64,00,00,00,02,00,06,
44474803,000005B9,false,Rx,0,5,07,FF,07,FF,28,00,00,00,
44477221,0000011A,false,Rx,0,8,00,40,80,55,00,00,01,0D,
44484644,000001D4,false,Rx,0,8,9F,6D,00,00,42,06,70,7D,
44484916,000001F2,false,Rx,0,8,08,64,00,00,00,02,01,07,
44487157,0000011A,false,Rx,0,8,01,40,80,55,40,00,02,C7,
44493157,000001DB,false,Rx,0,8,7F,E0,FF,C6,00,00,00,DE,
44493437,000001DC,false,Rx,0,8,FF,FF,FF,FF,1F,FF,FC,6B,
44494956,000001D4,false,Rx,0,8,9F,6D,00,00,82,06,70,B1,
44495238,000001F2,false,Rx,0,8,08,64,00,00,00,02,02,08,
44495392,0000050C,false,Rx,0,6,00,00,00,01,5D,5F,00,00,
44497572,0000011A,false,Rx,0,8,01,40,80,AA,80,00,03,D1,
44502073,0000054A,false,Rx,0,8,10,00,70,02,00,00,00,3D,
44503062,0000054B,false,Rx,0,8,00,08,80,00,04,00,00,00,
44503342,000001DB,false,Rx,0,8,00,20,FF,C6,00,00,01,C0,
44503555,000001DC,false,Rx,0,8,FF,FF,FF,FF,01,08,D1,CC,
44504067,0000054C,false,Rx,0,8,FF,FF,00,00,00,F8,FF,00,
44505118,0000054F,false,Rx,0,8,14,00,00,00,07,80,00,1E,
44505339,000001D4,false,Rx,0,8,9F,6D,00,00,C2,06,70,76,
44505552,000001F2,false,Rx,0,8,08,64,00,00,00,04,03,0B,
44506836,0000011A,false,Rx,0,8,01,40,80,AA,C0,00,00,1C,
44512948,0000056E,false,Rx,0,1,46,00,00,00,00,00,00,00,
44513222,000001DB,false,Rx,0,8,FF,E0,FF,C6,00,00,02,DB,
44513443,000001DC,false,Rx,0,8,FF,FF,FF,FF,04,D8,C6,C7,
44515448,000001D4,false,Rx,0,8,9F,6D,00,00,02,06,70,BA,
44515661,000001F2,false,Rx,0,8,08,64,00,00,00,04,00,08,
44515875,0000050A,false,Rx,0,6,04,20,00,1D,00,20,00,00,
44517526,0000011A,false,Rx,0,8,01,40,80,55,00,00,01,0A,
44521132,00000380,false,Rx,0,8,00,04,10,21,00,00,00,03,
44523194,000001DB,false,Rx,0,8,FF,E0,FF,C6,00,00,03,5E,
44523415,000001DC,false,Rx,0,8,FF,FF,FF,FF,08,C0,C7,88,
44525653,000001D4,false,Rx,0,8,9F,6D,00,00,42,06,70,7D,
44525926,000001F2,false,Rx,0,8,08,64,00,00,00,04,01,09,
44527157,0000011A,false,Rx,0,8,01,40,80,55,40,00,02,C7,
44534660,00000380,false,Rx,0,8,02,04,10,21,00,00,00,16,
44534725,000001DB,false,Rx,0,8,FF,E0,C0,86,00,00,00,5F,
44534788,000001DC,false,Rx,0,8,FF,FF,FF,FF,0C,C4,C0,2C,
44535895,000001D4,false,Rx,0,8,9F,6D,00,00,82,06,70,B1,
44536170,000001F2,false,Rx,0,8,08,64,00,00,00,04,02,0A,
44536392,0000050B,false,Rx,0,6,00,00,00,C0,00,60,00,00,
44537500,0000011A,false,Rx,0,8,01,40,80,AA,80,00,03,D1,
44543194,000001DB,false,Rx,0,8,FF,E0,C0,86,00,00,01,DA,
44543415,000001DC,false,Rx,0,8,FF,FF,FF,FF,01,08,D1,CC,
44546137,000001D4,false,Rx,0,8,A0,6D,00,00,C2,06,70,CB,
44546358,000001F2,false,Rx,0,8,08,64,00,00,00,04,03,0B,
44546807,0000011A,false,Rx,0,8,01,40,80,AA,C0,00,00,1C,
44553188,000001DB,false,Rx,0,8,00,00,C0,86,00,00,02,90,
44553410,000001DC,false,Rx,0,8,FF,FF,FF,FF,04,D8,C6,C7,
44556379,000001D4,false,Rx,0,8,A0,6D,00,00,02,06,70,07,
44556592,000001F2,false,Rx,0,8,08,64,00,00,00,04,00,08,
44557523,0000011A,false,Rx,0,8,01,40,80,55,00,00,01,0A,
44563156,000001DB,false,Rx,0,8,00,00,C0,86,00,00,03,15,
44563378,000001DC,false,Rx,0,8,FF,FF,FF,FF,08,C0,C7,88,
44566630,000001D4,false,Rx,0,8,A0,6D,00,00,42,06,70,C0,
44566844,000001F2,false,Rx,0,8,08,64,00,00,00,04,01,09,
44567118,0000011A,false,Rx,0,8,01,40,80,55,40,00,02,C7,
44573190,000001DB,false,Rx,0,8,00,00,C0,86,00,00,00,1F,
44573411,000001DC,false,Rx,0,8,FF,FF,FF,FF,0C,C4,C0,2C,
44576866,000001D4,false,Rx,0,8,A0,6D,00,00,82,06,70,0C,
44577141,000001F2,false,Rx,0,8,08,64,00,00,00,04,02,0A,
44577479,0000011A,false,Rx,0,8,01,40,80,AA,80,00,03,D1,
44583354,000001DB,false,Rx,0,8,00,00,C0,86,00,00,01,9A,
44583568,000001DC,false,Rx,0,8,FF,FF,FF,FF,01,08,D1,CC,
44583840,0000055B,false,Rx,0,8,AB,80,AA,00,FF,C0,10,7A,
44589424,0000011A,false,Rx,0,8,01,40,80,AA,C0,00,00,1C,
44589488,000001D4,false,Rx,0,8,A0,6D,00,00,C2,06,70,CB,
44589551,000001F2,false,Rx,0,8,08,64,00,00,00,04,03,0B,
44593182,000001DB,false,Rx,0,8,00,00,C0,A6,00,00,02,DF,
44593403,000001DC,false,Rx,0,8,FF,FF,FF,FF,04,D8,C6,C7,
44597376,000001D4,false,Rx,0,8,A0,6D,00,00,02,06,70,07,
44597589,0000011A,false,Rx,0,8,01,40,80,55,00,00,01,0A,
44597862,000001F2,false,Rx,0,8,08,64,00,00,00,04,00,08,
44598077,0000050C,false,Rx,0,6,00,00,00,02,5D,63,00,00,
44602163,0000054A,false,Rx,0,8,9E,00,70,02,00,00,00,3D,
44603155,0000054B,false,Rx,0,8,00,08,80,00,04,00,00,00,
44603375,000001DB,false,Rx,0,8,00,00,C0,A6,00,00,03,5A,
44603648,000001DC,false,Rx,0,8,FF,FF,FF,FF,08,C0,C7,88,
44604157,0000054C,false,Rx,0,8,FF,FF,00,00,00,F8,FF,00,
44605148,0000054F,false,Rx,0,8,43,00,00,00,07,C0,08,33,
44607092,0000011A,false,Rx,0,8,01,40,80,55,40,00,02,C7,
44607668,000001D4,false,Rx,0,8,A0,6D,00,00,42,06,70,C0,
44607881,000001F2,false,Rx,0,8,08,64,00,00,00,04,01,09,
44611194,00000380,false,Rx,0,8,02,04,10,21,00,00,00,27,
44611474,000005BF,false,Rx,0,8,00,00,00,00,10,00,00,00,
44612993,0000056E,false,Rx,0,1,46,00,00,00,00,00,00,00,
44613275,000001DB,false,Rx,0,8,00,00,C0,A6,00,00,00,50,
44613488,000001DC,false,Rx,0,8,FF,FF,FF,FF,0C,C4,C0,2C,
44617459,0000011A,false,Rx,0,8,01,40,80,AA,80,00,03,D1,
44617908,000001D4,false,Rx,0,8,A0,6D,00,00,82,06,70,0C,
44618123,000001F2,false,Rx,0,8,08,64,00,00,00,04,02,0A,
44618404,00000284,false,Rx,0,8,00,00,00,00,00,00,01,87,
44618616,0000050A,false,Rx,0,6,04,40,00,1D,00,20,00,00,
44623176,000001DB,false,Rx,0,8,00,00,C0,A6,00,00,01,D5,
44623397,000001DC,false,Rx,0,8,FF,FF,FF,FF,01,08,D1,CC,
44626707,0000011A,false,Rx,0,8,01,40,80,AA,C0,00,00,1C,
44628111,000001D4,false,Rx,0,8,A0,6D,00,00,C2,06,70,CB,
44628332,000001F2,false,Rx,0,8,08,64,00,00,00,04,03,0B,
44628605,00000284,false,Rx,0,8,00,00,00,00,00,00,02,88,
44633170,000001DB,false,Rx,0,8,00,00,C0,A6,00,00,02,DF,
44633392,000001DC,false,Rx,0,8,FF,FF,FF,FF,04,D8,C6,C7,
44637478,0000011A,false,Rx,0,8,01,40,80,55,00,00,01,0A,
44638349,000001D4,false,Rx,0,8,A0,6D,00,00,02,06,70,07,
44638562,000001F2,false,Rx,0,8,08,64,00,00,00,04,00,08,
44638776,0000050B,false,Rx,0,6,00,00,00,C0,00,60,00,00,
44646033,000001DB,false,Rx,0,8,00,00,C0,A6,00,00,03,5A,
44646097,000001DC,false,Rx,0,8,FF,FF,FF,FF,08,C0,C7,88,
44647149,0000011A,false,Rx,0,8,01,40,80,55,40,00,02,C7,
44648619,000001D4,false,Rx,0,8,A0,6D,00,00,42,06,70,C0,
44648831,000001F2,false,Rx,0,8,08,64,00,00,00,04,01,09,
44649107,00000284,false,Rx,0,8,00,00,00,00,00,00,03,89,
44653170,000001DB,false,Rx,0,8,00,00,C0,A6,00,00,00,50,
44653390,000001DC,false,Rx,0,8,FF,FF,FF,FF,0C,C4,C0,2C,
44657484,0000011A,false,Rx,0,8,01,40,80,AA,80,00,03,D1,
44658827,000001D4,false,Rx,0,8,A0,6D,00,00,82,06,70,0C,
44659043,000001F2,false,Rx,0,8,08,64,00,00,00,04,02,0A,
44663132,000001DB,false,Rx,0,8,00,00,C0,A6,00,00,01,D5,
44663412,000001DC,false,Rx,0,8,FF,FF,FF,FF,01,08,D1,CC,
44666721,0000011A,false,Rx,0,8,01,40,80,AA,C0,00,00,1C,
44669063,000001D4,false,Rx,0,8,A0,6D,00,00,C2,06,70,CB,
44669288,000001F2,false,Rx,0,8,08,64,00,00,00,04,03,0B,
44673131,000001DB,false,Rx,0,8,00,00,C0,A6,00,00,02,DF,
44673412,000001DC,false,Rx,0,8,FF,FF,FF,FF,04,D8,C6,C7,
44677558,0000011A,false,Rx,0,8,01,40,80,55,00,00,01,0A,
44679328,000001D4,false,Rx,0,8,A0,6D,00,00,02,06,70,07,
44679542,000001F2,false,Rx,0,8,08,64,00,00,00,04,00,08,
44679814,00000284,false,Rx,0,8,00,00,00,00,00,00,04,8A,
44683317,000001DB,false,Rx,0,8,00,00,C0,A6,00,00,03,5A,
44683589,000001DC,false,Rx,0,8,FF,FF,FF,FF,08,C0,C7,88,
44683802,0000055B,false,Rx,0,8,AB,40,55,00,FF,C0,11,DB,
44687176,0000011A,false,Rx,0,8,01,40,80,55,40,00,02,C7,
44689597,000001D4,false,Rx,0,8,A0,6D,00,00,42,06,70,C0,
44689870,000001F2,false,Rx,0,8,08,64,00,00,00,04,01,09,
44693182,000001DB,false,Rx,0,8,00,00,C0,A6,00,00,00,50,
44693404,000001DA,false,Rx,0,8,FF,00,00,00,7F,FE,01,97,
44693618,000001DC,false,Rx,0,8,FF,FF,FF,FF,0C,C4,C0,2C,
44700987,0000011A,false,Rx,0,8,01,40,80,AA,80,00,03,D1,
44701054,000001D4,false,Rx,0,8,A0,6D,00,00,82,06,70,0C,
44701117,000001F2,false,Rx,0,8,08,64,00,00,00,04,02,0A,
44701180,00000284,false,Rx,0,8,00,00,00,00,00,00,05,8B,
44701251,0000050C,false,Rx,0,6,00,00,00,03,B2,9A,00,00,
44702239,0000054A,false,Rx,0,8,10,00,70,02,00,00,00,3D,
44703163,000001DB,false,Rx,0,8,00,20,C0,A6,00,00,01,84,
44703384,000001DA,false,Rx,0,8,FF,00,00,00,7F,FE,02,9D,
44703656,000001DC,false,Rx,0,8,FF,FF,FF,FF,01,08,D1,CC,
44703870,0000054B,false,Rx,0,8,00,08,80,00,04,00,00,00,
44705283,0000054C,false,Rx,0,8,FF,FF,00,00,00,F8,FF,00,
44706207,0000054F,false,Rx,0,8,43,00,00,00,07,00,08,33,
44706663,0000011A,false,Rx,0,8,01,40,80,AA,C0,00,00,1C,
44710151,000001D4,false,Rx,0,8,A0,6D,00,00,C2,06,70,CB,
44710432,000001F2,false,Rx,0,8,08,64,00,00,00,05,03,0C,
44710645,00000284,false,Rx,0,8,00,00,00,00,00,00,06,8C,
44711341,00000380,false,Rx,0,8,02,04,10,21,00,00,00,38,
44711614,000005BF,false,Rx,0,8,00,00,00,00,18,00,00,19,
44713134,000001DB,false,Rx,0,8,00,20,C0,A6,00,00,02,8E,
44713415,000001DA,false,Rx,0,8,01,00,00,00,7F,FE,03,6D,
44713628,000001DC,false,Rx,0,8,FF,FF,FF,FF,04,D8,C6,C7,
44713723,0000056E,false,Rx,0,1,46,00,00,00,00,00,00,00,
44717401,0000011A,false,Rx,0,8,01,40,80,55,00,00,01,0A,
44720358,000001D4,false,Rx,0,8,A0,6D,00,00,02,06,70,07,
44720571,000001F2,false,Rx,0,8,08,64,00,00,00,07,00,0B,
44720784,0000050A,false,Rx,0,6,04,60,00,1D,00,20,00,00,
44723145,000001DB,false,Rx,0,8,00,20,C0,A6,00,00,03,0B,
44723366,000001DA,false,Rx,0,8,01,00,00,00,7F,FE,00,67,
44723639,000001DC,false,Rx,0,8,FF,FF,FF,FF,08,C0,C7,88,
44727070,0000011A,false,Rx,0,8,01,40,80,55,40,00,02,C7,
44730565,000001D4,false,Rx,0,8,A0,6D,00,00,42,06,70,C0,
44730837,000001F2,false,Rx,0,8,08,64,00,00,00,07,01,0C,
44731111,00000284,false,Rx,0,8,00,00,00,00,00,00,07,8D,
44733172,000001DB,false,Rx,0,8,00,20,C0,A6,00,00,00,01,
44733394,000001DA,false,Rx,0,8,01,00,00,00,7F,FF,01,75,
44733606,000001DC,false,Rx,0,8,FF,FF,FF,FF,0C,C4,C0,2C,
44737400,0000011A,false,Rx,0,8,01,40,80,AA,80,00,03,D1,
44740830,000001D4,false,Rx,0,8,A0,6D,00,00,82,06,70,0C,
44741047,000001F2,false,Rx,0,8,08,64,00,00,00,07,02,0D,
44741268,0000050B,false,Rx,0,6,00,00,00,C0,00,60,00,00,
44743145,000001DB,false,Rx,0,8,00,20,C0,A6,00,00,01,84,
44743366,000001DA,false,Rx,0,8,01,00,00,00,7F,FF,02,7F,
44743639,000001DC,false,Rx,0,8,FF,FF,FF,FF,01,08,D1,CC,
44746727,0000011A,false,Rx,0,8,01,40,80,AA,C0,00,00,1C,
44758410,000001D4,false,Rx,0,8,A0,6D,00,00,C2,06,70,CB,
44758475,000001F2,false,Rx,0,8,08,64,00,00,00,07,03,0E,
44758538,00000284,false,Rx,0,8,00,00,00,00,00,00,08,8E,
44758601,000001DB,false,Rx,0,8,00,20,C0,AE,00,00,02,3E,
44758664,000001DA,false,Rx,0,8,01,00,00,00,7F,FF,03,FA,
44758727,000001DC,false,Rx,0,8,FF,FF,FF,FF,04,D8,C6,C7,
44758791,0000011A,false,Rx,0,8,01,40,80,55,00,00,01,0A,
44761276,000001D4,false,Rx,0,8,A0,6D,00,00,02,06,70,07,
44761548,000001F2,false,Rx,0,8,08,64,00,00,00,07,00,0B,
44763131,000001DB,false,Rx,0,8,00,20,C0,AE,00,00,03,BB,
44763412,000001DA,false,Rx,0,8,01,00,00,00,7F,FF,00,F0,
44763625,000001DC,false,Rx,0,8,FF,FF,FF,FF,08,C0,C7,88,
44767057,0000011A,false,Rx,0,8,01,40,80,55,40,00,02,C7,
44771585,000001D4,false,Rx,0,8,A0,6D,00,00,42,06,70,C0,
44771798,000001F2,false,Rx,0,8,08,64,00,00,00,0A,01,0F,
44772070,00000284,false,Rx,0,8,00,00,00,00,00,00,09,8F,
44773118,000001DB,false,Rx,0,8,00,20,C0,AE,00,00,00,B1,
44773399,000001DA,false,Rx,0,8,01,00,00,00,7F,FF,01,75,
44773612,000001DC,false,Rx,0,8,FF,FF,FF,FF,0C,C4,C0,2C,
44777408,0000011A,false,Rx,0,8,01,40,80,AA,80,00,03,D1,
44781789,000001D4,false,Rx,0,8,A0,6D,00,00,82,46,70,91,
44782002,000001F2,false,Rx,0,8,08,64,00,00,00,0D,02,03,
44783236,000001DA,false,Rx,0,8,01,00,00,00,7F,FF,02,7F,
44783449,000001DB,false,Rx,0,8,00,20,C0,AE,00,00,01,34,
44783722,000001DC,false,Rx,0,8,FF,FF,FF,FF,01,08,D1,CC,
44783936,0000055A,false,Rx,0,8,00,44,41,00,5F,42,3A,C8,
44784210,0000055B,false,Rx,0,8,AB,40,55,00,FF,C0,12,D1,
44786633,0000011A,false,Rx,0,8,01,40,80,AA,C0,00,00,1C,
44792091,000001D4,false,Rx,0,8,A0,6D,00,00,C2,46,70,56,
44792373,000001F2,false,Rx,0,8,08,64,00,00,00,0D,03,04,
44792586,00000284,false,Rx,0,8,00,00,00,00,00,00,0A,90,
44793157,000001DB,false,Rx,0,8,00,20,C0,AE,00,00,02,3E,
44793380,000001DA,false,Rx,0,8,01,00,00,00,7F,FF,03,FA,
44793652,000001DC,false,Rx,0,8,FF,FF,FF,FF,04,D8,C6,C7,
44797389,0000011A,false,Rx,0,8,01,40,80,55,00,00,01,0A,
44802316,000001D4,false,Rx,0,8,A0,6D,00,00,02,46,70,9A,
44802530,000001F2,false,Rx,0,8,08,64,00,00,00,0D,00,01,
44802743,0000050C,false,Rx,0,6,00,00,00,00,B2,A6,00,00,
44803015,0000054A,false,Rx,0,8,9E,00,70,02,00,00,00,3D,
44803238,000001DB,false,Rx,0,8,00,00,C0,AE,00,00,03,EA,
44803451,000001DA,false,Rx,0,8,01,00,00,00,7F,FF,00,F0,
44803724,000001DC,false,Rx,0,8,FF,FF,FF,FF,08,C0,C7,88,
44804301,0000054B,false,Rx,0,8,00,08,80,00,04,00,00,00,
44805348,0000054C,false,Rx,0,8,FF,FF,00,00,00,F8,FF,00,
44806339,0000054F,false,Rx,0,8,43,00,00,00,07,40,08,33,
44807083,0000011A,false,Rx,0,8,01,40,80,55,40,00,02,C7,
44816365,00000380,false,Rx,0,8,02,04,10,21,00,00,00,05,
44816429,000005BF,false,Rx,0,8,00,00,00,00,18,00,00,2A,
44816493,000001D4,false,Rx,0,8,A0,6D,00,00,42,46,70,5D,
44816556,000001F2,false,Rx,0,8,08,64,00,00,00,0D,01,02,
44816619,00000284,false,Rx,0,8,00,00,00,00,00,00,0B,91,
44816682,000001DA,false,Rx,0,8,01,00,00,00,7F,FF,01,75,
44816745,000001DB,false,Rx,0,8,00,00,C0,AE,00,00,00,E0,
44816808,000001DC,false,Rx,0,8,FF,FF,FF,FF,0C,C4,C0,2C,
44816872,0000056E,false,Rx,0,1,46,00,00,00,00,00,00,00,
44817389,0000011A,false,Rx,0,8,01,40,80,AA,80,00,03,D1,
44822789,000001D4,false,Rx,0,8,A0,6D,00,00,82,46,70,91,
44823066,000001F2,false,Rx,0,8,08,64,00,00,00,0D,02,03,
44823280,000001DA,false,Rx,0,8,01,00,00,00,7F,FF,02,7F,
44823553,000001DB,false,Rx,0,8,00,00,C0,AE,00,00,01,65,
44823766,000001DC,false,Rx,0,8,FF,FF,FF,FF,01,08,D1,CC,
44823980,0000050A,false,Rx,0,6,04,00,00,1D,00,20,00,00,
44826672,0000011A,false,Rx,0,8,01,40,80,AA,C0,00,00,1C,
44833025,000001D4,false,Rx,0,8,A0,6D,00,00,C2,46,70,56,
44833246,000001DA,false,Rx,0,8,01,00,00,00,7F,FF,03,FA,
44833519,000001DB,false,Rx,0,8,00,00,C0,AE,00,00,02,6F,
44833731,000001DC,false,Rx,0,8,FF,FF,FF,FF,04,D8,C6,C7,
44834004,000001F2,false,Rx,0,8,08,64,00,00,00,0D,03,04,
44834219,00000284,false,Rx,0,8,00,00,00,00,00,00,0C,92,
44837360,0000011A,false,Rx,0,8,01,40,80,55,00,00,01,0A,
44843110,000001DB,false,Rx,0,8,00,00,C0,AE,00,00,03,EA,
44843390,000001D4,false,Rx,0,8,A0,6D,00,00,02,46,70,9A,
44843603,000001DA,false,Rx,0,8,01,00,00,00,7F,FF,00,F0,
44843876,000001DC,false,Rx,0,8,FF,FF,FF,FF,08,C0,C7,88,
44844092,000001F2,false,Rx,0,8,08,64,00,00,00,0D,00,01,
44844313,0000050B,false,Rx,0,6,00,00,00,C0,00,60,00,00,
44847051,0000011A,false,Rx,0,8,01,40,80,55,40,00,02,C7,
44853163,000001DB,false,Rx,0,8,00,00,C0,AE,00,00,00,E0,
44853385,000001DA,false,Rx,0,8,01,00,00,00,7F,FF,01,75,
44853598,000001D4,false,Rx,0,8,A0,6D,00,00,42,46,70,5D,
44853871,000001DC,false,Rx,0,8,FF,FF,FF,FF,0C,C4,C0,2C,
44854095,000001F2,false,Rx,0,8,08,64,00,00,00,0D,01,02,
44854375,00000284,false,Rx,0,8,00,00,00,00,00,00,0D,93,
44857365,0000011A,false,Rx,0,8,01,40,80,AA,80,00,03,D1,
44863116,000001DB,false,Rx,0,8,00,00,C0,AE,00,00,01,65,
44863396,000001DA,false,Rx,0,8,01,00,00,00,7F,FF,02,7F,
44863610,000001DC,false,Rx,0,8,FF,FF,FF,FF,01,08,D1,CC,
44863882,000001D4,false,Rx,0,8,A0,6D,00,00,82,46,70,91,
44864097,000001F2,false,Rx,0,8,08,64,00,00,00,0D,02,03,
44873657,0000011A,false,Rx,0,8,01,40,80,AA,C0,00,00,1C,
44873722,000001DB,false,Rx,0,8,00,00,C0,AE,00,00,02,6F,
44873785,000001DA,false,Rx,0,8,01,00,00,00,7F,FF,03,FA,
44873848,000001DC,false,Rx,0,8,FF,FF,FF,FF,04,D8,C6,C7,
44874002,000001D4,false,Rx,0,8,A0,6D,00,00,C2,46,70,56,
44874284,000001F2,false,Rx,0,8,08,64,00,00,00,0D,03,04,
44874497,00000284,false,Rx,0,8,00,00,00,00,00,00,0E,94,
44877335,0000011A,false,Rx,0,8,01,40,80,55,00,00,01,0A,
44883204,000001DA,false,Rx,0,8,01,00,00,00,7F,FF,00,F0,
44883426,000001DB,false,Rx,0,8,00,00,C0,AE,00,00,03,EA,
44883699,000001DC,false,Rx,0,8,FF,FF,FF,FF,08,C0,C7,88,
44883913,0000055A,false,Rx,0,8,00,44,41,00,5F,42,3A,C8,
44884131,0000055B,false,Rx,0,8,AB,40,55,00,FF,C0,13,54,
44884412,000001D4,false,Rx,0,8,A0,6D,00,00,02,46,70,9A,
44884625,000001F2,false,Rx,0,8,08,64,00,00,00,0D,00,01,
44887046,0000011A,false,Rx,0,8,01,40,80,55,40,00,02,C7,
44893157,000001DB,false,Rx,0,8,00,00,C0,AE,00,00,00,E0,
44893379,000001DA,false,Rx,0,8,01,00,00,00,7F,FF,01,75,
44893651,000001DC,false,Rx,0,8,FF,FF,FF,FF,0C,C4,C0,2C,
44894581,000001D4,false,Rx,0,8,A0,6D,00,00,42,46,70,5D,
44894795,000001F2,false,Rx,0,8,08,64,00,00,00,0D,01,02,
44895069,00000284,false,Rx,0,8,00,00,00,00,00,00,0F,95,
44897317,0000011A,false,Rx,0,8,01,40,80,AA,80,00,03,D1,
44902419,0000054A,false,Rx,0,8,10,00,70,06,22,00,00,3D,
44903106,000001DB,false,Rx,0,8,00,00,C0,AE,00,00,01,65,
44903387,000001DA,false,Rx,0,8,01,00,00,00,7F,FF,02,7F,
44903600,000001DC,false,Rx,0,8,FF,FF,FF,FF,01,08,D1,CC,
44903873,0000054B,false,Rx,0,8,00,48,88,12,0C,00,00,00,
44904395,0000054C,false,Rx,0,8,8D,66,40,00,00,40,7B,00,
44904785,000001D4,false,Rx,0,8,A0,6D,00,00,82,46,70,91,
44904999,000001F2,false,Rx,0,8,08,64,00,00,00,0D,02,03,
44905216,0000050C,false,Rx,0,6,00,00,00,01,B2,31,00,00,
44905496,0000054F,false,Rx,0,8,43,00,00,00,07,80,88,33,
44906601,0000011A,false,Rx,0,8,01,40,80,AA,C0,00,00,1C,
44911526,00000380,false,Rx,0,8,02,04,10,21,00,00,00,16,
44911739,000005BF,false,Rx,0,8,00,00,00,00,18,00,00,3B,
44913145,000001DB,false,Rx,0,8,00,00,C0,AE,00,00,02,6F,
44913365,000001DA,false,Rx,0,8,01,00,00,00,7F,FF,03,FA,
44913638,000001DC,false,Rx,0,8,FF,FF,FF,FF,04,D8,C6,C7,
44913733,0000056E,false,Rx,0,1,46,00,00,00,00,00,00,00,
44915017,000001D4,false,Rx,0,8,A0,6D,00,00,C2,46,70,56,
44915293,000001F2,false,Rx,0,8,08,64,00,00,00,0D,03,04,
44915805,00000284,false,Rx,0,8,00,00,00,00,00,00,10,96,
44915868,000005A9,false,Rx,0,8,FF,FF,FC,FF,FF,F0,00,00,
44917352,0000011A,false,Rx,0,8,01,40,80,55,00,00,01,0A,
44923104,000001DB,false,Rx,0,8,00,00,C0,AE,00,00,03,EA,
44923384,000001DA,false,Rx,0,8,01,00,00,00,7F,FF,00,F0,
44923597,000001DC,false,Rx,0,8,FF,FF,FF,FF,08,C0,C7,88,
44931894,000001D4,false,Rx,0,8,A0,6D,00,00,02,46,70,9A,
44931958,000001F2,false,Rx,0,8,08,64,00,00,00,0D,00,01,
44932021,0000050A,false,Rx,0,6,04,20,00,1D,00,20,00,00,
44932086,0000011A,false,Rx,0,8,01,40,80,55,40,00,02,C7,
44933135,000001DB,false,Rx,0,8,00,00,C0,AE,00,00,00,E0,
44933356,000001DA,false,Rx,0,8,01,00,00,00,7F,FF,01,75,
44933629,000001DC,false,Rx,0,8,FF,FF,FF,FF,0C,C4,C0,2C,
44935454,000001D4,false,Rx,0,8,A0,6D,00,00,42,46,70,5D,
44935666,000001F2,false,Rx,0,8,08,64,00,00,00,0E,01,03,
44935939,00000284,false,Rx,0,8,00,00,00,00,00,00,11,97,
44937294,0000011A,false,Rx,0,8,01,40,80,AA,80,00,03,D1,
44943104,000001DB,false,Rx,0,8,00,00,C0,AE,00,00,01,65,
44943385,000001DA,false,Rx,0,8,01,00,00,00,7F,FF,02,7F,
44943598,000001DC,false,Rx,0,8,FF,FF,FF,FF,01,08,D1,CC,
44945658,000001D4,false,Rx,0,8,A0,6D,00,00,82,46,70,91,
44945931,000001F2,false,Rx,0,8,08,64,00,00,00,0E,02,04,
44946157,0000050B,false,Rx,0,6,00,00,00,C0,00,60,00,00,
44946554,0000011A,false,Rx,0,8,01,40,80,AA,C0,00,00,1C,
44953145,000001DB,false,Rx,0,8,00,00,C0,AE,00,00,02,6F,
44953366,000001DA,false,Rx,0,8,01,00,00,00,00,01,03,9A,
44953639,000001DC,false,Rx,0,8,FF,FF,FF,FF,04,D8,C6,C7,
44955943,000001D4,false,Rx,0,8,A0,6D,00,00,C2,46,70,56,
44956217,000001F2,false,Rx,0,8,08,64,00,00,00,0E,03,05,
44956439,00000284,false,Rx,0,8,00,00,00,00,00,00,12,98,
44957312,0000011A,false,Rx,0,8,01,40,80,55,00,00,01,0A,
44963097,000001DB,false,Rx,0,8,00,20,C0,AE,00,00,03,BB,
44963378,000001DA,false,Rx,0,8,01,00,00,00,00,01,00,90,
44963592,000001DC,false,Rx,0,8,FF,FF,FF,FF,08,C0,C7,88,
44966188,000001D4,false,Rx,0,8,F7,07,00,00,02,46,70,40,
44966409,000001F2,false,Rx,0,8,08,64,00,00,00,0F,00,03,
44966976,0000011A,false,Rx,0,8,01,40,80,55,40,00,02,C7,
44973109,000001DB,false,Rx,0,8,00,20,C0,AE,00,00,00,B1,
44973389,000001DA,false,Rx,0,8,01,00,00,00,00,01,01,15,
44973603,000001DC,false,Rx,0,8,FF,FF,FF,FF,0C,C4,C0,2C,
44976441,000001D4,false,Rx,0,8,F7,07,00,00,42,46,70,87,
44976654,000001F2,false,Rx,0,8,08,64,00,00,00,0F,01,04,
44976927,00000284,false,Rx,0,8,00,00,00,00,00,00,13,99,
44977262,0000011A,false,Rx,0,8,01,40,80,AA,80,00,03,D1,
44988190,000001DA,false,Rx,0,8,01,00,00,00,00,01,02,1F,
44988261,000001DB,false,Rx,0,8,00,20,C0,AE,00,00,01,34,
44988325,000001DC,false,Rx,0,8,FF,FF,FF,FF,01,08,D1,CC,
44988388,0000055A,false,Rx,0,8,00,44,41,00,5F,42,3A,A8,
44988451,0000055B,false,Rx,0,8,AB,40,55,00,FF,C0,10,5E,
44988514,0000011A,false,Rx,0,8,01,40,80,AA,C0,00,00,1C,
44988577,000001D4,false,Rx,0,8,F7,07,00,00,82,46,70,4B,
44988640,000001F2,false,Rx,0,8,08,64,00,00,00,0F,02,05,
44988704,000005B9,false,Rx,0,5,07,FF,07,FF,28,00,00,00,
44993210,000001DA,false,Rx,0,8,01,00,00,00,00,01,03,9A,
44993490,000001DB,false,Rx,0,8,00,20,C0,AE,00,00,02,3E,
44993703,000001DC,false,Rx,0,8,FF,FF,FF,FF,04,D8,C6,C7,
44993917,000005BC,false,Rx,0,8,FF,C3,29,39,90,05,20,78,
44994191,000005C0,false,Rx,0,8,40,50,74,00,66,00,00,00,
44996969,000001D4,false,Rx,0,8,F7,07,00,00,C2,46,70,8C,
44997183,000001F2,false,Rx,0,8,08,64,00,00,00,0F,03,06,
44997464,0000011A,false,Rx,0,8,01,40,80,55,00,00,01,0A,
44997677,00000284,false,Rx,0,8,00,00,00,00,00,00,14,9A,
45002485,0000054A,false,Rx,0,8,9E,00,70,06,22,00,00,3D,
45003113,000001DB,false,Rx,0,8,00,20,C0,AE,00,00,03,BB,
45003394,000001DA,false,Rx,0,8,01,00,00,00,00,01,00,90,
45003606,000001DC,false,Rx,0,8,FF,FF,FF,FF,08,C0,C7,88,
45003879,0000054B,false,Rx,0,8,00,48,88,12,0C,00,00,00,
45004457,0000054C,false,Rx,0,8,8D,66,40,00,00,40,7B,00,
45005447,0000054F,false,Rx,0,8,43,01,00,00,07,C0,88,33,
45006969,0000011A,false,Rx,0,8,01,40,80,55,40,00,02,C7,
45007251,000001D4,false,Rx,0,8,F7,07,00,00,02,46,70,40,
45007464,000001F2,false,Rx,0,8,08,64,00,00,00,0F,00,03,
45007676,0000050C,false,Rx,0,6,00,00,00,02,B2,0D,00,00,
45011648,00000380,false,Rx,0,8,02,04,10,21,00,00,00,27,
45011862,000005BF,false,Rx,0,8,00,00,00,00,18,00,00,08,
45013091,000001DB,false,Rx,0,8,00,20,C0,AE,00,00,00,B1,
45013373,000001DA,false,Rx,0,8,01,00,00,00,00,01,01,15,
45013586,000001DC,false,Rx,0,8,FF,FF,FF,FF,0C,C4,C0,2C,
45013740,0000056E,false,Rx,0,1,46,00,00,00,00,00,00,00,
45017288,0000011A,false,Rx,0,8,01,40,80,AA,80,00,03,D1,
45017501,000001D4,false,Rx,0,8,F7,07,00,00,42,46,70,87,
45017774,000001F2,false,Rx,0,8,08,64,00,00,00,0F,01,04,
45017986,00000284,false,Rx,0,8,00,00,00,00,00,00,15,9B,
45023091,000001DB,false,Rx,0,8,00,20,C0,AE,00,00,01,34,
45023373,000001DA,false,Rx,0,8,01,00,00,00,00,01,02,1F,
45023586,000001DC,false,Rx,0,8,FF,FF,FF,FF,01,08,D1,CC,
45026544,0000011A,false,Rx,0,8,01,40,80,AA,C0,00,00,1C,
45027650,000001D4,false,Rx,0,8,F7,07,00,00,82,46,70,4B,
45027864,000001F2,false,Rx,0,8,08,64,00,00,00,0F,02,05,
45028084,0000050A,false,Rx,0,6,04,40,00,1D,00,20,00,00,
45033132,000001DB,false,Rx,0,8,00,20,C0,AE,00,00,02,3E,
45033354,000001DA,false,Rx,0,8,01,00,00,00,00,01,03,9A,
45033625,000001DC,false,Rx,0,8,FF,FF,FF,FF,04,D8,C6,C7,
45037301,0000011A,false,Rx,0,8,01,40,80,55,00,00,01,0A,
45037869,000001D4,false,Rx,0,8,F7,07,00,00,C2,46,70,8C,
45038144,000001F2,false,Rx,0,8,08,64,00,00,00,0F,03,06,
45047224,00000284,false,Rx,0,8,00,00,00,00,00,00,16,9C,
45047296,000001DB,false,Rx,0,8,00,20,C0,AE,00,00,03,BB,
45047359,000001DA,false,Rx,0,8,01,00,00,00,00,01,00,90,
45047422,000001DC,false,Rx,0,8,FF,FF,FF,FF,08,C0,C7,88,
45047485,0000011A,false,Rx,0,8,01,40,80,55,40,00,02,C7,
45048113,000001D4,false,Rx,0,8,F7,07,00,00,03,46,70,BB,
45048392,000001F2,false,Rx,0,8,08,64,00,00,00,11,00,06,
45048547,0000050B,false,Rx,0,6,00,00,00,C0,00,60,00,00,
45053110,000001DB,false,Rx,0,8,00,20,C0,AE,00,00,00,B1,
45053331,000001DA,false,Rx,0,8,01,00,00,00,00,01,01,15,
45053603,000001DC,false,Rx,0,8,FF,FF,FF,FF,0C,C4,C0,2C,
45057286,0000011A,false,Rx,0,8,01,40,80,AA,80,00,03,D1,
45058396,000001D4,false,Rx,0,8,F7,07,00,00,43,46,70,7C,
45058609,000001F2,false,Rx,0,8,08,64,00,00,00,11,01,07,
45058882,00000284,false,Rx,0,8,00,00,00,00,00,00,17,9D,
45063121,000001DB,false,Rx,0,8,00,20,C0,AE,00,00,01,34,
45063342,000001DA,false,Rx,0,8,01,00,00,00,00,01,02,1F,
45063615,000001DC,false,Rx,0,8,FF,FF,FF,FF,01,08,D1,CC,
45066513,0000011A,false,Rx,0,8,01,40,80,AA,C0,00,00,1C,
45068640,000001D4,false,Rx,0,8,F7,07,00,00,83,46,70,B0,
45068853,000001F2,false,Rx,0,8,08,64,00,00,00,11,02,08,
45073132,000001DB,false,Rx,0,8,00,20,C0,AE,00,00,02,3E,
45073354,000001DA,false,Rx,0,8,04,00,00,00,00,01,03,81,
45073625,000001DC,false,Rx,0,8,FF,FF,FF,FF,04,D8,C6,C7,
45077270,0000011A,false,Rx,0,8,01,40,80,55,00,00,01,0A,
45078850,000001D4,false,Rx,0,8,F7,07,00,00,C3,46,70,77,
45079124,000001F2,false,Rx,0,8,08,64,00,00,00,11,03,09,
45079346,00000284,false,Rx,0,8,00,00,00,00,00,00,18,9E,
45083191,000001DA,false,Rx,0,8,12,00,00,00,00,01,00,E9,
45083413,000001DB,false,Rx,0,8,00,00,C0,AE,00,00,03,EA,
45083685,000001DC,false,Rx,0,8,FF,FF,FF,FF,08,C0,C7,88,
45083898,0000055A,false,Rx,0,8,00,44,41,00,5F,42,42,C8,
45084113,0000055B,false,Rx,0,8,AB,40,55,00,FF,C0,11,DB,
45087188,0000011A,false,Rx,0,8,01,40,80,55,40,00,02,C7,
45089132,000001D4,false,Rx,0,8,F7,07,00,00,03,46,70,BB,
45089353,000001F2,false,Rx,0,8,08,64,00,00,00,11,00,06,
45093138,000001DB,false,Rx,0,8,FF,C0,C0,AE,00,00,00,F1,
45093359,000001DA,false,Rx,0,8,36,00,00,00,00,01,01,90,
45093572,000001DC,false,Rx,0,8,FF,FF,FF,FF,0C,C4,C0,2C,
45103752,0000011A,false,Rx,0,8,01,40,80,AA,80,00,03,D1,
45103849,000001D4,false,Rx,0,8,F7,07,00,00,43,46,70,7C,
45103912,000001F2,false,Rx,0,8,08,64,00,00,00,11,01,07,
45103976,00000284,false,Rx,0,8,00,00,00,00,00,00,19,9F,
45104040,0000054A,false,Rx,0,8,10,00,70,06,22,00,00,3D,
45104103,000001DB,false,Rx,0,8,FF,A0,C0,AE,00,00,01,87,
45104166,000001DA,false,Rx,0,8,49,00,00,00,00,01,02,62,
45104237,000001DC,false,Rx,0,8,FF,FF,FF,FF,01,08,D1,CC,
45104301,0000054B,false,Rx,0,8,00,48,88,12,0C,00,00,00,
45104572,0000054C,false,Rx,0,8,8D,66,40,00,00,40,7B,00,
45105564,0000054F,false,Rx,0,8,44,01,00,00,07,00,88,33,
45106438,0000011A,false,Rx,0,8,01,40,80,AA,C0,00,00,1C,
45109631,000001D4,false,Rx,0,8,F7,07,00,00,83,46,70,B0,
45109903,000001F2,false,Rx,0,8,08,64,00,00,00,11,02,08,
45110118,0000050C,false,Rx,0,6,00,00,00,03,B2,9A,00,00,
45111765,00000380,false,Rx,0,8,02,04,10,21,00,00,00,38,
45111979,000005BF,false,Rx,0,8,00,00,00,00,18,00,00,19,
45113092,000001DB,false,Rx,0,8,FF,60,C0,6E,00,00,02,C9,
45113373,000001DA,false,Rx,0,8,63,00,00,00,00,01,03,31,
45113586,000001DC,false,Rx,0,8,FF,FF,FF,FF,04,D8,C6,C7,
45113681,0000056E,false,Rx,0,1,46,00,00,00,00,00,00,00,
45117236,0000011A,false,Rx,0,8,01,40,80,55,00,00,01,0A,
45119885,000001D4,false,Rx,0,8,F7,07,00,00,C3,46,70,77,
45120101,000001F2,false,Rx,0,8,08,64,00,00,00,11,03,09,
45120322,00000284,false,Rx,0,8,00,00,00,00,00,00,1A,A0,
45123097,000001DB,false,Rx,0,8,FF,60,C0,6E,00,00,03,4C,
45123318,000001DA,false,Rx,0,8,7A,00,00,00,00,01,00,74,
45123591,000001DC,false,Rx,0,8,FF,FF,FF,FF,08,C0,C7,88,
45126959,0000011A,false,Rx,0,8,01,40,80,55,40,00,02,C7,
45130096,000001D4,false,Rx,0,8,F7,07,00,00,03,46,70,BB,
45130317,000001F2,false,Rx,0,8,08,64,00,00,00,11,00,06,
45130590,00000284,false,Rx,0,8,00,00,00,00,00,00,1B,A1,
45130804,0000050A,false,Rx,0,6,04,60,00,1D,00,20,00,00,
45133104,000001DB,false,Rx,0,8,FF,40,C0,6E,00,00,00,17,
45133326,000001DA,false,Rx,0,8,87,00,00,00,00,01,01,8D,
45133598,000001DC,false,Rx,0,8,FF,FF,FF,FF,0C,C4,C0,2C,
45137210,0000011A,false,Rx,0,8,01,40,80,AA,80,00,03,D1,
45140295,000001D4,false,Rx,0,8,F7,07,00,00,43,46,70,7C,
45140568,000001F2,false,Rx,0,8,08,64,00,00,00,11,01,07,
45143104,000001DB,false,Rx,0,8,FF,40,C0,6E,00,00,01,92,
45143324,000001DA,false,Rx,0,8,9B,00,00,00,00,01,02,D3,
45143597,000001DC,false,Rx,0,8,FF,FF,FF,FF,01,08,D1,CC,
45146509,0000011A,false,Rx,0,8,01,40,80,AA,C0,00,00,1C,
45150537,000001D4,false,Rx,0,8,F7,07,00,00,83,46,70,B0,
45150809,000001F2,false,Rx,0,8,08,64,00,00,00,11,02,08,
45151022,00000284,false,Rx,0,8,00,00,00,00,00,00,1C,A2,
45151243,0000050B,false,Rx,0,6,00,00,00,C0,00,60,00,00,
45153119,000001DB,false,Rx,0,8,FF,20,C0,6E,00,00,02,6B,
45153340,000001DA,false,Rx,0,8,A4,00,00,00,00,01,03,EB,
45153613,000001DC,false,Rx,0,8,FF,FF,FF,FF,04,D8,C6,C7,
45162393,0000011A,false,Rx,0,8,01,40,80,55,00,00,01,0A,
45162459,000001D4,false,Rx,0,8,F7,07,00,00,C3,46,70,77,
45162522,000001F2,false,Rx,0,8,08,64,00,00,00,11,03,09,
45163092,000001DB,false,Rx,0,8,FF,00,C0,6E,00,00,03,BF,
45163313,000001DA,false,Rx,0,8,A9,00,00,00,00,01,00,C2,
45163586,000001DC,false,Rx,0,8,FF,FF,FF,FF,08,C0,C7,88,
45166910,0000011A,false,Rx,0,8,01,40,80,55,40,00,02,C7,
45171074,000001D4,false,Rx,0,8,F7,07,00,00,03,46,70,BB,
45171296,000001F2,false,Rx,0,8,08,64,00,00,00,11,00,06,
45171569,00000284,false,Rx,0,8,00,00,00,00,00,00,1D,A3,
45173092,000001DB,false,Rx,0,8,FE,E0,C0,6E,00,00,00,80,
45173373,000001DA,false,Rx,0,8,B0,00,00,00,00,01,01,08,
45173586,000001DC,false,Rx,0,8,FF,FF,FF,FF,0C,C4,C0,2C,
45177194,0000011A,false,Rx,0,8,01,40,80,AA,80,00,03,D1,
45181289,000001D4,false,Rx,0,8,F7,07,00,00,43,46,70,7C,
45181503,000001F2,false,Rx,0,8,08,64,00,00,00,11,01,07,
45183145,000001DA,false,Rx,0,8,B5,00,00,00,00,01,02,19,
45183426,000001DB,false,Rx,0,8,FF,20,C0,6E,00,00,01,61,
45183640,000001DC,false,Rx,0,8,FF,FF,FF,FF,01,08,D1,CC,
45183853,0000055A,false,Rx,0,8,00,44,41,00,5F,42,42,C8,
45184129,0000055B,false,Rx,0,8,AB,00,AA,00,FF,C0,12,34,
45186435,0000011A,false,Rx,0,8,01,40,80,AA,C0,00,00,1C,
45191535,000001D4,false,Rx,0,8,F7,07,00,00,83,46,70,B0,
45191808,000001F2,false,Rx,0,8,08,64,00,00,00,11,02,08,
45192022,00000284,false,Rx,0,8,00,00,00,00,00,00,1E,A4,
45193132,000001DB,false,Rx,0,8,FF,60,C0,6A,00,00,02,91,
45193353,000001DA,false,Rx,0,8,B8,00,00,00,00,01,03,BF,
45193567,000001DC,false,Rx,0,8,6E,04,0F,FD,04,D8,C6,DD,
45197175,0000011A,false,Rx,0,8,01,40,80,55,00,00,01,0A,
45201801,000001D4,false,Rx,0,8,F7,07,00,00,C3,46,70,77,
45202015,000001F2,false,Rx,0,8,08,64,00,00,00,11,03,09,
45202651,0000054A,false,Rx,0,8,9E,00,70,06,22,00,00,3D,
45203103,000001DB,false,Rx,0,8,FF,80,C0,6A,00,00,03,26,
45203324,000001DA,false,Rx,0,8,BA,00,00,00,00,01,00,BB,
45203596,000001DC,false,Rx,0,8,6E,04,0F,FD,08,C0,C7,92,
45203810,0000054B,false,Rx,0,8,00,48,88,12,0C,00,00,00,
45204623,0000054C,false,Rx,0,8,8D,66,40,00,00,40,7B,00,
45205615,0000054F,false,Rx,0,8,44,01,00,00,07,40,88,33,
45206900,0000011A,false,Rx,0,8,01,40,80,55,40,00,02,C7,
45211826,00000380,false,Rx,0,8,02,04,10,21,00,00,00,05,
45212099,000005BF,false,Rx,0,8,00,00,00,00,18,00,00,2A,
45212321,000001D4,false,Rx,0,8,F7,07,00,00,03,46,70,BB,
45219567,000001F2,false,Rx,0,8,08,64,00,00,00,11,00,06,
45219632,00000284,false,Rx,0,8,00,00,00,00,00,00,1F,A5,
45219695,0000050C,false,Rx,0,6,00,00,00,00,5D,C8,00,00,
45219758,000001DA,false,Rx,0,8,BC,00,00,00,00,01,01,2C,
45219821,000001DB,false,Rx,0,8,FF,C0,C0,6A,00,00,00,8E,
45219884,000001DC,false,Rx,0,8,6E,04,0F,FD,0C,C4,C0,36,
45219947,0000056E,false,Rx,0,1,46,00,00,00,00,00,00,00,
45220010,0000011A,false,Rx,0,8,01,40,80,AA,80,00,03,D1,
45222249,000001D4,false,Rx,0,8,F7,07,00,00,43,46,70,7C,
45222530,000001F2,false,Rx,0,8,08,64,00,00,00,11,01,07,
45223098,000001DB,false,Rx,0,8,FF,C0,C0,6A,00,00,01,0B,
45223378,000001DA,false,Rx,0,8,BD,00,00,00,00,01,02,21,
45223591,000001DC,false,Rx,0,8,6E,04,0F,FD,01,08,D1,D6,
45226427,0000011A,false,Rx,0,8,01,40,80,AA,C0,00,00,1C,
45232478,000001D4,false,Rx,0,8,F7,07,00,00,83,46,70,B0,
45232750,000001F2,false,Rx,0,8,08,64,00,00,00,11,02,08,
45233022,00000284,false,Rx,0,8,00,00,00,00,00,00,20,A6,
45233244,000001DA,false,Rx,0,8,BE,00,00,00,00,01,03,AD,
45233458,000001DB,false,Rx,0,8,FF,C0,C0,6A,00,00,02,01,
45233730,000001DC,false,Rx,0,8,6E,04,0F,FD,04,D8,C6,DD,
45233944,0000050A,false,Rx,0,6,04,00,00,1D,00,20,00,00,
45237137,0000011A,false,Rx,0,8,01,40,80,55,00,00,01,0A,
45242720,000001D4,false,Rx,0,8,F7,07,00,00,C3,46,70,77,
45242993,000001F2,false,Rx,0,8,08,64,00,00,00,11,03,09,
45243210,000001DA,false,Rx,0,8,BF,00,00,00,00,01,00,A0,
45243432,000001DB,false,Rx,0,8,FF,C0,C0,6A,00,00,03,84,
45243705,000001DC,false,Rx,0,8,6E,04,0F,FD,08,C0,C7,92,
45246897,0000011A,false,Rx,0,8,01,40,80,55,40,00,02,C7,
45253009,000001D4,false,Rx,0,8,F7,07,00,00,03,46,70,BB,
45253224,000001DA,false,Rx,0,8,C0,00,00,00,00,01,01,DD,
45253504,000001DB,false,Rx,0,8,FF,E0,C0,6A,00,00,00,DF,
45253718,000001DC,false,Rx,0,8,6E,04,0F,FD,0C,C4,C0,36,
45253998,000001F2,false,Rx,0,8,08,64,00,00,00,11,00,06,
45254216,00000284,false,Rx,0,8,00,00,00,00,00,00,21,A7,
45254438,0000050B,false,Rx,0,6,00,00,00,C0,00,60,00,00,
45257150,0000011A,false,Rx,0,8,01,40,80,AA,80,00,03,D1,
45263085,000001DB,false,Rx,0,8,FF,E0,C0,6A,00,00,01,5A,
45263365,000001D4,false,Rx,0,8,F7,07,00,00,43,46,70,7C,
45263579,000001DA,false,Rx,0,8,C0,00,00,00,00,01,02,D7,
45263792,000001DC,false,Rx,0,8,6E,04,0F,FD,01,08,D1,D6,
45264067,000001F2,false,Rx,0,8,08,64,00,00,00,11,01,07,
45266345,0000011A,false,Rx,0,8,01,40,80,AA,C0,00,00,1C,
45276591,000001DB,false,Rx,0,8,FF,E0,C0,AA,00,00,02,77,
45276656,000001DA,false,Rx,0,8,C0,00,00,00,00,01,03,52,
45276719,000001D4,false,Rx,0,8,F7,07,00,00,83,46,70,B0,
45276782,000001DC,false,Rx,0,8,6E,04,0F,FD,04,D8,C6,DD,
45276845,000001F2,false,Rx,0,8,08,64,00,00,00,11,02,08,
45276908,00000284,false,Rx,0,8,00,00,00,00,00,00,22,A8,
45277122,0000011A,false,Rx,0,8,01,40,80,55,00,00,01,0A,
45283176,000001DA,false,Rx,0,8,C1,00,00,00,00,01,00,5F,
45283397,000001DB,false,Rx,0,8,FF,E0,C0,AA,00,00,03,F2,
45283610,000001DC,false,Rx,0,8,6E,04,0F,FD,08,C0,C7,92,
45283883,000001D4,false,Rx,0,8,F7,07,00,00,C3,46,70,77,
45284099,000001F2,false,Rx,0,8,08,64,00,00,00,11,03,09,
45284320,0000055A,false,Rx,0,8,00,44,41,00,5F,42,42,C8,
45284593,0000055B,false,Rx,0,8,AB,00,AA,00,FF,C0,13,B1,
45286830,0000011A,false,Rx,0,8,01,40,80,55,40,00,02,C7,
45293123,000001DB,false,Rx,0,8,FF,E0,C0,AA,00,00,00,F8,
45293345,000001DA,false,Rx,0,8,C1,00,00,00,00,01,01,DA,
45293558,000001DC,false,Rx,0,8,6E,04,0F,FD,0C,C4,C0,36,
45294008,000001D4,false,Rx,0,8,F7,07,00,00,03,46,70,BB,
45294223,000001F2,false,Rx,0,8,08,64,00,00,00,11,00,06,
45294502,00000284,false,Rx,0,8,00,00,00,00,00,00,23,A9,
45297156,0000011A,false,Rx,0,8,01,40,80,AA,80,00,03,D1,
45302734,0000054A,false,Rx,0,8,10,00,70,06,22,00,00,3D,
45303128,000001DB,false,Rx,0,8,FF,E0,C0,AA,00,00,01,7D,
45303349,000001DA,false,Rx,0,8,C1,00,00,00,00,01,02,D0,
45303563,000001DC,false,Rx,0,8,6E,04,0F,FD,01,08,D1,D6,
45303835,0000054B,false,Rx,0,8,00,48,88,12,0C,00,00,00,
45304234,000001D4,false,Rx,0,8,F7,07,00,00,43,46,70,7C,
45304507,000001F2,false,Rx,0,8,08,64,00,00,00,11,01,07,
45304720,0000054C,false,Rx,0,8,8E,66,40,00,00,40,7B,00,
45305710,0000054F,false,Rx,0,8,44,01,00,00,07,80,88,33,
45306406,0000011A,false,Rx,0,8,01,40,80,AA,C0,00,00,1C,
45311919,00000380,false,Rx,0,8,02,04,10,21,00,00,00,16,
45312193,000005BF,false,Rx,0,8,00,00,00,00,18,00,00,3B,
45313123,000001DB,false,Rx,0,8,FF,E0,C0,AA,00,00,02,77,
45313344,000001DA,false,Rx,0,8,C1,00,00,00,00,01,03,55,
45313557,000001DC,false,Rx,0,8,6E,04,0F,FD,04,D8,C6,DD,
45313652,0000056E,false,Rx,0,1,46,00,00,00,00,00,00,00,
45314524,000001D4,false,Rx,0,8,F7,07,00,00,83,46,70,B0,
45314796,000001F2,false,Rx,0,8,08,64,00,00,00,11,02,08,
45315010,00000284,false,Rx,0,8,00,00,00,00,00,00,24,AA,
45315225,0000050C,false,Rx,0,6,00,00,00,01,5D,5F,00,00,
45317110,0000011A,false,Rx,0,8,01,40,80,55,00,00,01,0A,
45323104,000001DB,false,Rx,0,8,00,00,C0,AA,00,00,03,B2,
45323326,000001DA,false,Rx,0,8,C1,00,00,00,00,01,00,5F,
45323598,000001DC,false,Rx,0,8,6E,04,0F,FD,08,C0,C7,92,
45324706,000001D4,false,Rx,0,8,F7,07,00,00,C3,46,70,77,
45324919,000001F2,false,Rx,0,8,08,64,00,00,00,11,03,09,
45334922,0000011A,false,Rx,0,8,01,40,80,55,40,00,02,C7,
45334987,000001DB,false,Rx,0,8,00,00,C0,AA,00,00,00,B8,
45335052,000001DA,false,Rx,0,8,C1,00,08,00,00,01,01,F3,
45335115,000001DC,false,Rx,0,8,6E,04,0F,FD,0C,C4,C0,36,
45335211,000001D4,false,Rx,0,8,F7,07,00,00,03,46,70,BB,
45335282,000001F2,false,Rx,0,8,08,64,00,00,00,11,00,06,
45335437,00000284,false,Rx,0,8,00,00,00,00,00,00,25,AB,
45335650,0000050A,false,Rx,0,6,04,20,00,1D,00,20,00,00,
45337113,0000011A,false,Rx,0,8,01,40,80,AA,80,00,03,D1,
45343110,000001DB,false,Rx,0,8,00,00,C0,AA,00,00,01,3D,
45343332,000001DA,false,Rx,0,8,C1,00,08,00,00,01,02,F9,
45343545,000001DC,false,Rx,0,8,6E,04,0F,FD,01,08,D1,D6,
45345184,000001D4,false,Rx,0,8,F7,07,00,00,43,46,70,7C,
45345406,000001F2,false,Rx,0,8,08,64,00,00,00,11,01,07,
45346351,0000011A,false,Rx,0,8,01,40,80,AA,C0,00,00,1C,
45353116,000001DB,false,Rx,0,8,00,00,C0,AA,00,00,02,37,
45353338,000001DA,false,Rx,0,8,C1,00,08,00,00,01,03,7C,
45353551,000001DC,false,Rx,0,8,6E,04,0F,FD,04,D8,C6,DD,
45355454,000001D4,false,Rx,0,8,F7,07,00,00,83,46,70,B0,
45355667,000001F2,false,Rx,0,8,00,64,00,00,00,12,02,01,
45355940,00000284,false,Rx,0,8,00,00,00,00,00,00,26,AC,
45356156,0000050B,false,Rx,0,6,00,00,00,C0,00,60,00,00,
45357089,0000011A,false,Rx,0,8,01,40,80,55,00,00,01,0A,
45363104,000001DB,false,Rx,0,8,00,00,C0,AA,00,00,03,B2,
45363324,000001DA,false,Rx,0,8,C1,00,08,00,00,01,00,76,
45363537,000001DC,false,Rx,0,8,6E,04,0F,FD,08,C0,C7,92,
45365656,000001D4,false,Rx,0,8,F7,07,00,00,C3,46,70,77,
45365929,000001F2,false,Rx,0,8,00,64,00,00,00,12,03,02,
45366801,0000011A,false,Rx,0,8,01,40,80,55,40,00,02,C7,
45373078,000001DB,false,Rx,0,8,00,00,C0,AA,00,00,00,B8,
45373358,000001DA,false,Rx,0,8,C1,00,08,00,00,01,01,F3,
45373572,000001DC,false,Rx,0,8,6E,04,0F,FD,0C,C4,C0,36,
45375931,000001D4,false,Rx,0,8,F7,07,00,00,03,46,70,BB,
45376148,000001F2,false,Rx,0,8,00,64,00,00,00,12,00,0F,
45376429,00000284,false,Rx,0,8,00,00,00,00,00,00,27,AD,
45377057,0000011A,false,Rx,0,8,01,40,80,AA,80,00,03,D1,
45383110,000001DA,false,Rx,0,8,C1,00,08,00,00,01,02,F9,
45383390,000001DB,false,Rx,0,8,00,20,C0,AA,00,00,01,6C,
45383603,000001DC,false,Rx,0,8,6E,04,0F,FD,01,08,D1,D6,
45383816,0000055A,false,Rx,0,8,00,44,41,00,5F,42,4A,C8,
45384091,0000055B,false,Rx,0,8,AB,00,AA,00,FF,C0,10,BB,
45391813,000001D4,false,Rx,0,8,F7,07,00,00,43,46,70,7C,
45391877,0000011A,false,Rx,0,8,01,40,80,AA,C0,00,00,1C,
45391940,000001F2,false,Rx,0,8,00,64,00,00,00,12,01,00,
45393111,000001DB,false,Rx,0,8,00,20,C0,AA,00,00,02,66,
45393333,000001DA,false,Rx,0,8,C1,00,08,00,00,01,03,7C,
45393547,000001DC,false,Rx,0,8,6E,04,0F,FD,04,D8,C6,DD,
45396386,000001D4,false,Rx,0,8,F7,07,00,00,83,46,70,B0,
45396600,000001F2,false,Rx,0,8,00,64,00,00,00,12,02,01,
45396873,00000284,false,Rx,0,8,00,00,00,00,00,00,28,AE,
45397090,0000011A,false,Rx,0,8,01,40,80,55,00,00,01,0A,
45402789,0000054A,false,Rx,0,8,9E,00,70,06,22,00,00,3D,
45403065,000001DB,false,Rx,0,8,00,20,C0,AA,00,00,03,E3,
45403346,000001DA,false,Rx,0,8,C1,00,08,00,00,01,00,76,
45403560,000001DC,false,Rx,0,8,6E,04,0F,FD,08,C0,C7,92,
45403773,0000054B,false,Rx,0,8,00,48,88,12,0C,00,00,00,
45404761,0000054C,false,Rx,0,8,8E,66,40,00,00,40,7B,00,
45405811,0000054F,false,Rx,0,8,44,01,00,00,07,C0,88,33,
45406742,000001D4,false,Rx,0,8,F7,07,00,00,C3,46,70,77,
45406955,0000011A,false,Rx,0,8,01,40,80,55,40,00,02,C7,
45407236,000001F2,false,Rx,0,8,00,64,00,00,00,12,03,02,
45412032,00000380,false,Rx,0,8,02,04,10,21,00,00,00,27,
45412311,000005BF,false,Rx,0,8,00,00,00,00,18,00,00,08,
45413060,000001DB,false,Rx,0,8,00,20,C0,AA,00,00,00,E9,
45413341,000001DA,false,Rx,0,8,C1,00,08,00,00,01,01,F3,
45413555,000001DC,false,Rx,0,8,6E,04,0F,FD,0C,C4,C0,36,
45413649,0000056E,false,Rx,0,1,46,00,00,00,00,00,00,00,
45417014,000001D4,false,Rx,0,8,F7,07,00,00,03,46,70,BB,
45417237,0000011A,false,Rx,0,8,01,40,80,AA,80,00,03,D1,
45417450,000001F2,false,Rx,0,8,00,64,00,00,00,12,00,0F,
45417723,00000284,false,Rx,0,8,00,00,00,00,00,00,29,AF,
45417936,0000050C,false,Rx,0,6,00,00,00,02,5D,63,00,00,
45423102,000001DB,false,Rx,0,8,00,20,C0,AA,00,00,01,6C,
45423323,000001DA,false,Rx,0,8,C1,00,08,00,00,01,02,F9,
45423536,000001DC,false,Rx,0,8,6E,04,0F,FD,01,08,D1,D6,
45426257,0000011A,false,Rx,0,8,01,40,80,AA,C0,00,00,1C,
45427121,000001D4,false,Rx,0,8,F7,07,00,00,43,46,70,7C,
45427342,000001F2,false,Rx,0,8,00,64,00,00,00,12,01,00,
45427615,000005A9,false,Rx,0,8,FF,FF,FC,12,C4,70,00,00,
45433071,000001DB,false,Rx,0,8,00,20,C0,AA,00,00,02,66,
45433292,000001DA,false,Rx,0,8,C1,00,08,00,00,01,03,7C,
45433565,000001DC,false,Rx,0,8,6E,04,0F,FD,04,D8,C6,DD,
45437060,0000011A,false,Rx,0,8,01,40,80,55,00,00,01,0A,
45437399,000001D4,false,Rx,0,8,F7,07,00,00,83,46,70,B0,
45437672,000001F2,false,Rx,0,8,00,64,00,00,00,12,02,01,
45437885,00000284,false,Rx,0,8,00,00,00,00,00,00,2A,B0,
45438101,0000050A,false,Rx,0,6,04,40,00,1D,00,20,00,00,
45449674,000001DB,false,Rx,0,8,00,20,C0,AA,00,00,03,E3,
45449738,000001DA,false,Rx,0,8,C1,00,08,00,00,01,00,76,
45449801,000001DC,false,Rx,0,8,6E,04,0F,FD,08,C0,C7,92,
45449864,0000011A,false,Rx,0,8,01,40,80,55,40,00,02,C7,
45449928,000001D4,false,Rx,0,8,F7,07,00,00,C3,46,70,77,
45449991,000001F2,false,Rx,0,8,00,64,00,00,00,12,03,02,
45453071,000001DB,false,Rx,0,8,00,20,C0,AA,00,00,00,E9,
45453350,000001DA,false,Rx,0,8,C1,00,08,00,00,01,01,F3,
45453564,000001DC,false,Rx,0,8,6E,04,0F,FD,0C,C4,C0,36,
45457060,0000011A,false,Rx,0,8,01,40,80,AA,80,00,03,D1,
45457871,000001D4,false,Rx,0,8,F7,07,00,00,07,46,70,5D,
45458086,000001F2,false,Rx,0,8,10,64,00,00,00,14,00,02,
45458367,00000284,false,Rx,0,8,00,00,00,00,00,00,2B,B1,
45458581,0000050B,false,Rx,0,6,00,00,00,C0,00,60,00,00,
45463085,000001DB,false,Rx,0,8,00,20,C0,AA,00,00,01,6C,
45463307,000001DA,false,Rx,0,8,C1,00,08,00,00,01,02,F9,
45463579,000001DC,false,Rx,0,8,6E,04,0F,FD,01,08,D1,D6,
45466301,0000011A,false,Rx,0,8,01,40,80,AA,C0,00,00,1C,
45468126,000001D4,false,Rx,0,8,F7,07,00,00,47,46,70,9A,
45468349,000001F2,false,Rx,0,8,10,64,00,00,00,14,01,03,
45473073,000001DB,false,Rx,0,8,00,20,C0,AA,00,00,02,66,
45473295,000001DA,false,Rx,0,8,C1,64,18,00,00,01,03,25,
45473568,000001DC,false,Rx,0,8,6E,04,0F,FD,04,D8,C6,DD,
45477060,0000011A,false,Rx,0,8,01,40,80,55,00,00,01,0A,
45478293,000001D4,false,Rx,0,8,F7,07,00,00,87,46,70,56,
45478565,000001F2,false,Rx,0,8,10,64,00,00,00,14,02,04,
45478779,00000284,false,Rx,0,8,00,00,00,00,00,00,2C,B2,
45483222,000001DA,false,Rx,0,8,C1,64,18,00,00,01,00,2F,
45483442,000001DB,false,Rx,0,8,00,20,C0,AA,00,00,03,E3,
45483714,000001DC,false,Rx,0,8,6E,04,0F,FD,08,C0,C7,92,
45483928,0000055A,false,Rx,0,8,00,44,41,00,5F,42,5A,C8,
45484143,0000055B,false,Rx,0,8,AB,00,AA,00,FF,C0,11,3E,
45486749,0000011A,false,Rx,0,8,01,40,80,55,40,00,02,C7,
45488636,000001D4,false,Rx,0,8,F7,07,00,00,C7,46,70,91,
45488850,000001F2,false,Rx,0,8,10,64,00,00,00,14,03,05,
45493175,000001DA,false,Rx,0,8,C1,64,18,00,00,01,01,AA,
45493456,000001DB,false,Rx,0,8,00,20,C0,AA,00,00,00,E9,
45493669,000001DC,false,Rx,0,8,6E,04,0F,FD,0C,C4,C0,36,
45493883,000005BC,false,Rx,0,8,25,43,2A,39,91,05,40,32,
45494157,000005C0,false,Rx,0,8,80,72,72,00,66,D0,00,00,
45496997,0000011A,false,Rx,0,8,01,40,80,AA,80,00,03,D1,
45498882,000001D4,false,Rx,0,8,F7,07,00,00,07,46,70,5D,
45499098,000001F2,false,Rx,0,8,10,64,00,00,00,14,00,02,
45499379,00000284,false,Rx,0,8,00,00,00,00,00,00,2D,B3,
45499533,000005B9,false,Rx,0,5,00,78,07,FF,28,00,00,00,
45507388,0000054A,false,Rx,0,8,10,00,70,06,22,00,00,3D,
45507452,000001DB,false,Rx,0,8,00,00,C0,AA,00,00,01,3D,
45507515,000001DA,false,Rx,0,8,C1,64,18,00,00,01,02,A0,
45507579,000001DC,false,Rx,0,8,6E,04,0F,FD,01,08,D1,D6,
45507642,0000054B,false,Rx,0,8,00,48,88,12,0C,00,00,00,
45507705,0000054C,false,Rx,0,8,8E,66,40,00,00,40,7B,00,
45507768,0000054F,false,Rx,0,8,44,01,00,00,07,00,88,33,
45507831,0000011A,false,Rx,0,8,01,40,80,AA,C0,00,00,1C,
45509117,000001D4,false,Rx,0,8,F7,07,00,00,47,46,70,9A,
45509398,000001F2,false,Rx,0,8,10,64,00,00,00,14,01,03,
45512169,00000380,false,Rx,0,8,02,04,10,21,00,00,00,38,
45512390,000005BF,false,Rx,0,8,00,00,00,00,20,00,00,12,
45513082,000001DB,false,Rx,0,8,00,00,C0,AA,00,00,02,37,
45513305,000001DA,false,Rx,0,8,C1,64,18,00,00,01,03,25,
45513577,000001DC,false,Rx,0,8,6E,04,0F,FD,04,D8,C6,DD,
45513672,0000056E,false,Rx,0,1,46,00,00,00,00,00,00,00,
45516984,0000011A,false,Rx,0,8,01,40,80,55,00,00,01,0A,
45519348,000001D4,false,Rx,0,8,F7,07,00,00,87,46,70,56,
45519621,000001F2,false,Rx,0,8,10,64,00,00,00,14,02,04,
45519835,00000284,false,Rx,0,8,00,00,00,00,00,00,2E,B4,
45520048,0000050C,false,Rx,0,6,00,00,00,03,5D,F4,00,00,
45523067,000001DB,false,Rx,0,8,FF,E0,C0,AA,00,00,03,F2,
45523288,000001DA,false,Rx,0,8,C1,64,18,00,00,01,00,2F,
45523560,000001DC,false,Rx,0,8,6E,04,0F,FD,08,C0,C7,92,
45526931,0000011A,false,Rx,0,8,01,40,80,55,40,00,02,C7,
45529535,000001D4,false,Rx,0,8,F7,07,00,00,C7,46,70,91,
45529808,000001F2,false,Rx,0,8,10,64,00,00,00,14,03,05,
45533065,000001DB,false,Rx,0,8,FF,E0,C0,6A,00,00,00,DF,
45533287,000001DA,false,Rx,0,8,C1,64,18,00,00,01,01,AA,
45533560,000001DC,false,Rx,0,8,6E,04,0F,FD,0C,C4,C0,36,
45536990,0000011A,false,Rx,0,8,01,40,80,AA,80,00,03,D1,
45539829,000001D4,false,Rx,0,8,F7,07,00,00,07,46,70,5D,
45540046,000001F2,false,Rx,0,8,10,64,00,00,00,14,00,02,
45540325,00000284,false,Rx,0,8,00,00,00,00,00,00,2F,B5,
45540480,0000050A,false,Rx,0,6,04,62,00,1D,00,20,00,00,
45543078,000001DB,false,Rx,0,8,FF,C0,C0,6A,00,00,01,0B,
45543300,000001DA,false,Rx,0,8,C1,64,18,00,00,01,02,A0,
45543573,000001DC,false,Rx,0,8,6E,04,0F,FD,01,08,D1,D6,
45546304,0000011A,false,Rx,0,8,01,40,80,AA,C0,00,00,1C,
45550028,000001D4,false,Rx,0,8,F7,07,00,00,47,46,70,9A,
45550302,000001F2,false,Rx,0,8,10,64,00,00,00,14,01,03,
45550516,00000284,false,Rx,0,8,00,00,00,00,00,00,30,B6,
45553057,000001DB,false,Rx,0,8,FF,C0,C0,6A,00,00,02,01,
45553337,000001DA,false,Rx,0,8,C1,64,18,00,00,01,03,25,
45553549,000001DC,false,Rx,0,8,6E,04,0F,FD,04,D8,C6,DD,
45556995,0000011A,false,Rx,0,8,01,40,80,55,00,00,01,0A,
45565243,000001D4,false,Rx,0,8,F7,07,00,00,87,46,70,56,
45565307,000001F2,false,Rx,0,8,10,64,00,00,00,14,02,04,
45565371,0000050B,false,Rx,0,6,00,00,00,C0,00,60,00,00,
45565434,000001DB,false,Rx,0,8,FF,A0,C0,6A,00,00,03,77,
45565497,000001DA,false,Rx,0,8,C1,64,18,00,00,01,00,2F,
45565560,000001DC,false,Rx,0,8,6E,04,0F,FD,08,C0,C7,92,
45566907,0000011A,false,Rx,0,8,01,40,80,55,40,00,02,C7,
45570538,000001D4,false,Rx,0,8,F7,07,00,00,C7,46,70,91,
45570811,000001F2,false,Rx,0,8,10,64,00,00,00,14,03,05,
45571025,00000284,false,Rx,0,8,00,00,00,00,00,00,31,B7,
45573055,000001DB,false,Rx,0,8,FF,A0,C0,6A,00,00,00,7D,
45573335,000001DA,false,Rx,0,8,C1,64,18,00,00,01,01,AA,
45573549,000001DC,false,Rx,0,8,6E,04,0F,FD,0C,C4,C0,36,
45576951,0000011A,false,Rx,0,8,01,40,80,AA,80,00,03,D1,
45580743,000001D4,false,Rx,0,8,F7,07,00,00,07,46,70,5D,
45581016,000001F2,false,Rx,0,8,10,64,00,00,00,14,00,02,
45583196,000001DA,false,Rx,0,8,C1,64,18,00,00,01,02,A0,
45583417,000001DB,false,Rx,0,8,FF,80,C0,6A,00,00,01,A9,
45583690,000001DC,false,Rx,0,8,6E,04,0F,FD,01,08,D1,D6,
45583903,0000055A,false,Rx,0,8,00,44,41,00,5F,42,5B,48,
45584118,0000055B,false,Rx,0,8,AB,00,AA,00,FF,C0,12,34,
45586178,0000011A,false,Rx,0,8,01,40,80,AA,C0,00,00,1C,
45591044,000001D4,false,Rx,0,8,F7,07,00,00,47,46,70,9A,
45591323,000001F2,false,Rx,0,8,10,64,00,00,00,14,01,03,
45591536,00000284,false,Rx,0,8,00,00,00,00,00,00,32,B8,
45593056,000001DB,false,Rx,0,8,FF,80,C0,6A,00,00,02,A3,
45593336,000001DA,false,Rx,0,8,C1,64,18,00,00,01,03,25,
45593550,000001DC,false,Rx,0,8,6E,04,0F,FD,04,D8,C6,DD,
45596978,0000011A,false,Rx,0,8,01,40,80,55,00,00,01,0A,
45601258,000001D4,false,Rx,0,8,F7,07,00,00,87,46,70,56,
45601471,000001F2,false,Rx,0,8,10,64,00,00,00,14,02,04,
45603051,000001DB,false,Rx,0,8,FF,A0,C0,6A,00,00,03,77,
45603331,000001DA,false,Rx,0,8,C1,64,18,00,00,01,00,2F,
45603545,000001DC,false,Rx,0,8,6E,04,0F,FD,08,C0,C7,92,
45603935,0000054A,false,Rx,0,8,9E,00,70,06,22,00,00,3D,
45604926,0000054B,false,Rx,0,8,00,48,88,12,0C,00,00,00,
45605915,0000054C,false,Rx,0,8,8E,66,40,00,00,40,7B,00,
45606906,0000011A,false,Rx,0,8,01,40,80,55,40,00,02,C7,
45607179,0000054F,false,Rx,0,8,44,01,00,00,07,40,88,33,
45611629,000001D4,false,Rx,0,8,F7,07,00,00,C7,46,70,91,
45611843,000001F2,false,Rx,0,8,10,64,00,00,00,14,03,05,
45612116,00000284,false,Rx,0,8,00,00,00,00,00,00,33,B9,
45612338,00000380,false,Rx,0,8,02,04,10,21,00,00,00,05,
45612610,000005BF,false,Rx,0,8,00,00,00,00,20,00,00,23,
45613067,000001DB,false,Rx,0,8,FF,A0,C0,6A,00,00,00,7D,
45613288,000001DA,false,Rx,0,8,C1,64,18,00,00,01,01,AA,
45613561,000001DC,false,Rx,0,8,6E,04,0F,FD,0C,C4,C0,36,
45613655,0000056E,false,Rx,0,1,46,00,00,00,00,00,00,00,
45623573,0000011A,false,Rx,0,8,01,40,80,AA,80,00,03,D1,
45623637,000001D4,false,Rx,0,8,F7,07,00,00,07,46,70,5D,
45623700,000001F2,false,Rx,0,8,10,64,00,00,00,14,00,02,
45623764,0000050C,false,Rx,0,6,00,00,00,00,5D,C8,00,00,
45623827,000001DB,false,Rx,0,8,FF,A0,C0,6A,00,00,01,F8,
45623890,000001DA,false,Rx,0,8,C1,64,18,00,00,01,02,A0,
45623953,000001DC,false,Rx,0,8,6E,04,0F,FD,01,08,D1,D6,
45626194,0000011A,false,Rx,0,8,01,40,80,AA,C0,00,00,1C,
45632009,000001D4,false,Rx,0,8,F7,07,00,00,47,46,70,9A,
45632224,000001F2,false,Rx,0,8,10,64,00,00,00,14,01,03,
45632504,00000284,false,Rx,0,8,00,00,00,00,00,00,34,BA,
45633073,000001DB,false,Rx,0,8,FF,C0,C0,6A,00,00,02,01,
45633295,000001DA,false,Rx,0,8,C1,64,18,00,00,01,03,25,
45633567,000001DC,false,Rx,0,8,6E,04,0F,FD,04,D8,C6,DD,
45636938,0000011A,false,Rx,0,8,01,40,80,55,00,00,01,0A,
45642216,000001D4,false,Rx,0,8,F7,07,00,00,87,46,70,56,
45642437,000001F2,false,Rx,0,8,10,64,00,00,00,14,02,04,
45642649,0000050A,false,Rx,0,6,04,02,00,1D,00,20,00,00,
45643098,000001DB,false,Rx,0,8,FF,C0,C0,6A,00,00,03,84,
45643320,000001DA,false,Rx,0,8,C1,64,18,00,00,01,00,2F,
45643534,000001DC,false,Rx,0,8,6E,04,0F,FD,08,C0,C7,92,
45646668,0000011A,false,Rx,0,8,01,40,80,55,40,00,02,C7,
45652484,000001D4,false,Rx,0,8,F7,07,00,00,C7,46,70,91,
45652757,000001F2,false,Rx,0,8,10,64,00,00,00,14,03,05,
45652970,00000284,false,Rx,0,8,00,00,00,00,00,00,35,BB,
45653184,000001DA,false,Rx,0,8,C1,64,18,00,00,01,01,AA,
45653465,000001DB,false,Rx,0,8,FF,C0,C0,6A,00,00,00,8E,
45653679,000001DC,false,Rx,0,8,6E,04,0F,FD,0C,C4,C0,36,
45656938,0000011A,false,Rx,0,8,01,40,80,AA,80,00,03,D1,
45662695,000001D4,false,Rx,0,8,F7,07,00,00,07,46,70,5D,
45662968,000001F2,false,Rx,0,8,10,64,00,00,00,14,00,02,
45663183,000001DB,false,Rx,0,8,FF,C0,C0,6A,00,00,01,0B,
45663404,000001DA,false,Rx,0,8,C1,64,18,00,00,01,02,A0,
45663677,000001DC,false,Rx,0,8,6E,04,0F,FD,01,08,D1,D6,
45663891,0000050B,false,Rx,0,6,00,00,00,C0,00,60,00,00,
45666191,0000011A,false,Rx,0,8,01,40,80,AA,C0,00,00,1C,
45673009,000001D4,false,Rx,0,8,F7,07,00,00,47,46,70,9A,
45673224,000001DA,false,Rx,0,8,C1,64,18,00,00,01,03,25,
45673445,000001DB,false,Rx,0,8,FF,C0,C0,6A,00,00,02,01,
45680090,000001DC,false,Rx,0,8,6E,04,0F,FD,04,D8,C6,DD,
45680155,000001F2,false,Rx,0,8,10,64,00,00,00,14,01,03,
45680218,00000284,false,Rx,0,8,00,00,00,00,00,00,36,BC,
45680289,0000011A,false,Rx,0,8,01,40,80,55,00,00,01,0A,
45683177,000001DA,false,Rx,0,8,C1,64,18,00,00,01,00,2F,
45683399,000001D4,false,Rx,0,8,F7,07,00,00,87,46,70,56,
45683671,000001DB,false,Rx,0,8,FF,C0,C0,6A,00,00,03,84,
45683885,000001DC,false,Rx,0,8,6E,04,0F,FD,08,C0,C7,92,
45684100,000001F2,false,Rx,0,8,10,64,00,00,00,14,02,04,
45684381,0000055A,false,Rx,0,8,00,44,41,00,5F,43,5B,48,
45684593,0000055B,false,Rx,0,8,AB,00,55,00,FF,C0,13,F6,
45686891,0000011A,false,Rx,0,8,01,40,80,55,40,00,02,C7,
45693064,000001DB,false,Rx,0,8,FF,C0,C0,6A,00,00,00,8E,
45693284,000001DA,false,Rx,0,8,C1,64,18,00,00,01,01,AA,
45693555,000001D4,false,Rx,0,8,F7,07,00,00,C7,46,70,91,
45693769,000001DC,false,Rx,0,8,6E,04,0F,FD,0C,C4,C0,36,
45693983,000001F2,false,Rx,0,8,10,64,00,00,00,14,03,05,
45694264,00000284,false,Rx,0,8,00,00,00,00,00,00,37,BD,
45696917,0000011A,false,Rx,0,8,01,40,80,AA,80,00,03,D1,
45703032,0000054A,false,Rx,0,8,10,00,70,06,22,00,00,3D,
45703252,000001DA,false,Rx,0,8,C1,64,18,00,00,01,02,A0,
45703525,000001DB,false,Rx,0,8,FF,C0,C0,6A,00,00,01,0B,
45703738,000001D4,false,Rx,0,8,F7,07,00,00,07,46,70,5D,
45703951,000001DC,false,Rx,0,8,6E,04,0F,FD,01,08,D1,D6,
45704226,000001F2,false,Rx,0,8,10,64,00,00,00,14,00,02,
45704446,0000054B,false,Rx,0,8,00,48,88,12,0C,00,00,00,
45705014,0000054C,false,Rx,0,8,8E,66,40,00,00,40,7B,00,
45706004,0000054F,false,Rx,0,8,44,01,00,00,07,80,88,33,
45706286,0000011A,false,Rx,0,8,01,40,80,AA,C0,00,00,1C,
45712342,00000380,false,Rx,0,8,02,04,10,21,00,00,00,16,
45712556,000005BF,false,Rx,0,8,00,00,00,00,20,00,00,34,
45713067,000001DB,false,Rx,0,8,FF,C0,C0,6A,00,00,02,01,
45713289,000001DA,false,Rx,0,8,C1,64,18,00,00,01,03,25,
45713561,000001DC,false,Rx,0,8,6E,04,0F,FD,04,D8,C6,DD,
45713656,0000056E,false,Rx,0,1,46,00,00,00,00,00,00,00,
45714048,000001D4,false,Rx,0,8,F7,07,00,00,47,46,70,9A,
45714262,000001F2,false,Rx,0,8,10,64,00,00,00,14,01,03,
45714535,00000284,false,Rx,0,8,00,00,00,00,00,00,38,BE,
45716891,0000011A,false,Rx,0,8,01,40,80,55,00,00,01,0A,
45723064,000001DB,false,Rx,0,8,FF,C0,C0,6A,00,00,03,84,
45723284,000001DA,false,Rx,0,8,C1,64,18,00,00,01,00,2F,
45723556,000001DC,false,Rx,0,8,6E,04,0F,FD,08,C0,C7,92,
45724185,000001D4,false,Rx,0,8,F7,07,00,00,87,46,70,56,
45724465,000001F2,false,Rx,0,8,10,64,00,00,00,14,02,04,
45724620,0000050C,false,Rx,0,6,00,00,00,01,B2,31,00,00,
45726624,0000011A,false,Rx,0,8,01,40,80,55,40,00,02,C7,
45737977,000001DB,false,Rx,0,8,FF,A0,C0,6A,00,00,00,7D,
45738043,000001DA,false,Rx,0,8,C1,64,18,00,00,01,01,AA,
45738106,000001DC,false,Rx,0,8,6E,04,0F,FD,0C,C4,C0,36,
45738170,000001D4,false,Rx,0,8,F7,07,00,00,C7,46,70,91,
45738241,000001F2,false,Rx,0,8,10,64,00,00,00,14,03,05,
45738304,00000284,false,Rx,0,8,00,00,00,00,00,00,39,BF,
45738367,0000011A,false,Rx,0,8,01,40,80,AA,80,00,03,D1,
45743046,000001DB,false,Rx,0,8,FF,A0,C0,6A,00,00,01,F8,
45743320,000001DA,false,Rx,0,8,C1,64,18,00,00,01,02,A0,
45743533,000001DC,false,Rx,0,8,6E,04,0F,FD,01,08,D1,D6,
45744641,000001D4,false,Rx,0,8,F7,07,00,00,07,46,70,5D,
45744913,000001F2,false,Rx,0,8,10,64,00,00,00,14,00,02,
45745132,0000050A,false,Rx,0,6,04,22,00,1D,00,20,00,00,
45746073,0000011A,false,Rx,0,8,01,40,80,AA,C0,00,00,1C,
45753024,000001DB,false,Rx,0,8,FF,A0,C0,6A,00,00,02,F2,
45753299,000001DA,false,Rx,0,8,C1,64,18,00,00,01,03,25,
45753512,000001DC,false,Rx,0,8,6E,04,0F,FD,04,D8,C6,DD,
45754926,000001D4,false,Rx,0,8,F7,07,00,00,47,46,70,9A,
45755140,000001F2,false,Rx,0,8,10,64,00,00,00,14,01,03,
45755421,00000284,false,Rx,0,8,00,00,00,00,00,00,3A,C0,
45756882,0000011A,false,Rx,0,8,01,40,80,55,00,00,01,0A,
45763060,000001DB,false,Rx,0,8,FF,A0,C0,6A,00,00,03,77,
45763275,000001DA,false,Rx,0,8,C1,64,18,00,00,01,00,2F,
45763547,000001DC,false,Rx,0,8,6E,04,0F,FD,08,C0,C7,92,
45765129,000001D4,false,Rx,0,8,F7,07,00,00,87,46,70,56,
45765408,000001F2,false,Rx,0,8,10,64,00,00,00,14,02,04,
45765622,0000050B,false,Rx,0,6,00,00,00,C0,00,60,00,00,
45766611,0000011A,false,Rx,0,8,01,40,80,55,40,00,02,C7,
45773041,000001DB,false,Rx,0,8,FF,C0,C0,6A,00,00,00,8E,
45773314,000001DA,false,Rx,0,8,C1,64,18,00,00,01,01,AA,
45773528,000001DC,false,Rx,0,8,6E,04,0F,FD,0C,C4,C0,36,
45775413,000001D4,false,Rx,0,8,F7,07,00,00,C7,46,70,91,
45775626,000001F2,false,Rx,0,8,10,64,00,00,00,14,03,05,
45775898,00000284,false,Rx,0,8,00,00,00,00,00,00,3B,C1,
45776887,0000011A,false,Rx,0,8,01,40,80,AA,80,00,03,D1,
45783156,000001DA,false,Rx,0,8,C1,64,18,00,00,01,02,A0,
45783378,000001DB,false,Rx,0,8,FF,C0,C0,6A,00,00,01,0B,
45783651,000001DC,false,Rx,0,8,6E,04,0F,FD,01,08,D1,D6,
45783864,0000055A,false,Rx,0,8,00,44,41,00,5F,43,5B,48,
45784137,0000055B,false,Rx,0,8,AB,00,55,00,FF,C0,10,FC,
45785668,000001D4,false,Rx,0,8,F7,07,00,00,07,46,70,5D,
45785882,000001F2,false,Rx,0,8,10,64,00,00,00,14,00,02,
45786157,0000011A,false,Rx,0,8,01,40,80,AA,C0,00,00,1C,
45795299,000001DB,false,Rx,0,8,FF,A0,C0,6A,00,00,02,F2,
45795363,000001DA,false,Rx,0,8,C1,64,18,00,00,01,03,25,
45795426,000001DC,false,Rx,0,8,6E,04,0F,FD,04,D8,C6,DD,
45795876,000001D4,false,Rx,0,8,F7,07,00,00,47,46,70,9A,
45796091,000001F2,false,Rx,0,8,10,64,00,00,00,14,01,03,
45796373,00000284,false,Rx,0,8,00,00,00,00,00,00,3C,C2,
45796822,0000011A,false,Rx,0,8,01,40,80,55,00,00,01,0A,
45803060,000001DB,false,Rx,0,8,FF,A0,C0,6A,00,00,03,77,
45803275,000001DA,false,Rx,0,8,C1,64,18,00,00,01,00,2F,
45803547,000001DC,false,Rx,0,8,6E,04,0F,FD,08,C0,C7,92,
45803761,0000054A,false,Rx,0,8,9E,00,70,06,22,00,00,3D,
45805107,0000054B,false,Rx,0,8,00,48,88,12,0C,00,00,00,
45806097,0000054C,false,Rx,0,8,8E,66,40,00,00,40,7B,00,
45806319,000001D4,false,Rx,0,8,F7,07,00,00,87,46,70,56,
45806591,0000011A,false,Rx,0,8,01,40,80,55,40,00,02,C7,
45806804,000001F2,false,Rx,0,8,10,64,00,00,00,14,02,04,
45807077,0000054F,false,Rx,0,8,44,01,00,00,07,C0,88,33,
45812479,00000380,false,Rx,0,8,02,04,10,21,00,00,00,27,
45812692,000005BF,false,Rx,0,8,00,00,00,00,20,00,00,01,
45813083,000001DB,false,Rx,0,8,FF,C0,C0,6A,00,00,00,8E,
45813298,000001DA,false,Rx,0,8,C1,64,18,00,00,01,01,AA,
45813511,000001DC,false,Rx,0,8,6E,04,0F,FD,0C,C4,C0,36,
45813665,0000056E,false,Rx,0,1,46,00,00,00,00,00,00,00,
45816504,000001D4,false,Rx,0,8,F7,07,00,00,C7,46,70,91,
45816717,000001F2,false,Rx,0,8,10,64,00,00,00,14,03,05,
45816930,0000011A,false,Rx,0,8,01,40,80,AA,80,00,03,D1,
45817204,00000284,false,Rx,0,8,00,00,00,00,00,00,3D,C3,
45823025,000001DB,false,Rx,0,8,FF,C0,C0,6A,00,00,01,0B,
45823300,000001DA,false,Rx,0,8,C1,64,18,00,00,01,02,A0,
45823513,000001DC,false,Rx,0,8,6E,04,0F,FD,01,08,D1,D6,
45826068,0000011A,false,Rx,0,8,01,40,80,AA,C0,00,00,1C,
45826597,000001D4,false,Rx,0,8,F7,07,00,00,07,46,70,5D,
45826870,000001F2,false,Rx,0,8,10,64,00,00,00,14,00,02,
45827085,0000050C,false,Rx,0,6,00,00,00,02,B2,0D,00,00,
45833022,000001DB,false,Rx,0,8,FF,C0,C0,6A,00,00,02,01,
45833303,000001DA,false,Rx,0,8,C1,64,18,00,00,01,03,25,
45833516,000001DC,false,Rx,0,8,6E,04,0F,FD,04,D8,C6,DD,
45836825,0000011A,false,Rx,0,8,01,40,80,55,00,00,01,0A,
45837042,000001D4,false,Rx,0,8,F7,07,00,00,47,46,70,9A,
45837323,000001F2,false,Rx,0,8,10,64,00,00,00,14,01,03,
45837536,00000284,false,Rx,0,8,00,00,00,00,00,00,3E,C4,
45843051,000001DB,false,Rx,0,8,FF,C0,C0,6A,00,00,03,84,
45843271,000001DA,false,Rx,0,8,C1,64,18,00,00,01,00,2F,
45843544,000001DC,false,Rx,0,8,6E,04,0F,FD,08,C0,C7,92,
45852809,0000011A,false,Rx,0,8,01,40,80,55,40,00,02,C7,
45852874,000001D4,false,Rx,0,8,F7,07,00,00,87,46,70,56,
45852937,000001F2,false,Rx,0,8,10,64,00,00,00,14,02,04,
45853034,0000050A,false,Rx,0,6,04,42,00,1D,80,20,00,00,
45853097,000001DB,false,Rx,0,8,FF,C0,C0,6A,00,00,00,8E,
45853259,000001DA,false,Rx,0,8,C1,64,18,00,00,01,01,AA,
45853532,000001DC,false,Rx,0,8,6E,04,0F,FD,0C,C4,C0,36,
45856798,0000011A,false,Rx,0,8,01,40,80,AA,80,00,03,D1,
45857376,000001D4,false,Rx,0,8,F7,07,00,00,C7,46,70,91,
45857589,000001F2,false,Rx,0,8,10,64,00,00,00,14,03,05,
45857862,00000284,false,Rx,0,8,00,00,00,00,00,00,3F,C5,
45863024,000001DB,false,Rx,0,8,FF,C0,C0,6A,00,00,01,0B,
45863304,000001DA,false,Rx,0,8,C1,64,18,00,00,01,02,A0,
45863518,000001DC,false,Rx,0,8,6E,04,0F,FD,01,08,D1,D6,
45866110,0000011A,false,Rx,0,8,01,40,80,AA,C0,00,00,1C,
45867579,000001D4,false,Rx,0,8,F7,07,00,00,07,46,70,5D,
45867852,000001F2,false,Rx,0,8,10,64,00,00,00,14,00,02,
45868070,0000050B,false,Rx,0,6,00,00,00,C0,00,60,00,00,
45872493,00000380,false,Rx,0,8,02,04,10,21,00,00,00,B0,
45873063,000001DB,false,Rx,0,8,FF,C0,C0,6A,00,00,02,01,
45873278,000001DA,false,Rx,0,8,C1,64,18,00,00,01,03,25,
45873550,000001DC,false,Rx,0,8,6E,04,0F,FD,04,D8,C6,DD,
45876801,0000011A,false,Rx,0,8,01,40,80,55,00,00,01,0A,
45877851,000001D4,false,Rx,0,8,F7,07,00,00,47,46,70,9A,
45878067,000001F2,false,Rx,0,8,10,64,00,00,00,14,01,03,
45878347,00000284,false,Rx,0,8,00,00,00,00,00,00,40,C6,
45883173,000001DA,false,Rx,0,8,C1,64,18,00,00,01,00,2F,
45883395,000001DB,false,Rx,0,8,FF,C0,C0,6A,00,00,03,84,
45883608,000001DC,false,Rx,0,8,6E,04,0F,FD,08,C0,C7,92,
45883880,0000055A,false,Rx,0,8,00,44,41,00,5F,43,5B,48,
45884098,0000055B,false,Rx,0,8,AB,00,55,00,FF,C0,11,79,
45886523,0000011A,false,Rx,0,8,01,40,80,55,40,00,02,C7,
45888104,000001D4,false,Rx,0,8,F7,07,00,00,87,46,70,56,
45888326,000001F2,false,Rx,0,8,10,64,00,00,00,18,02,08,
45893066,000001DB,false,Rx,0,8,FF,C0,C0,6A,00,00,00,8E,
45893286,000001DA,false,Rx,0,8,C1,64,18,00,00,01,01,AA,
45893500,000001DC,false,Rx,0,8,6E,04,0F,FD,0C,C4,C0,36,
45896814,0000011A,false,Rx,0,8,01,40,80,AA,80,00,03,D1,
45898347,000001D4,false,Rx,0,8,F7,07,00,00,C7,46,30,17,
45898561,000001F2,false,Rx,0,8,10,64,00,00,00,1E,03,0F,
45898833,00000284,false,Rx,0,8,00,00,00,00,00,00,41,C7,
45909712,000001DB,false,Rx,0,8,FF,C0,C0,6A,00,00,01,0B,
45909776,000001DA,false,Rx,0,8,C1,64,18,00,00,01,02,A0,
45909839,000001DC,false,Rx,0,8,6E,04,0F,FD,01,08,D1,D6,
45909902,0000054A,false,Rx,0,8,10,00,70,06,22,00,00,3D,
45909966,0000054B,false,Rx,0,8,00,48,88,12,0C,00,00,00,
45910032,0000011A,false,Rx,0,8,01,40,80,AA,C0,00,00,1C,
45910095,0000054C,false,Rx,0,8,8E,66,40,00,00,40,7B,00,
45910158,0000054F,false,Rx,0,8,44,01,00,00,07,00,88,33,
45910221,000001D4,false,Rx,0,8,F7,07,00,00,07,46,30,DB,
45910292,000001F2,false,Rx,0,8,10,64,00,00,00,1E,00,0C,
45910355,00000284,false,Rx,0,8,00,00,00,00,00,00,42,C8,
45912535,00000380,false,Rx,0,8,02,04,10,21,00,00,00,8D,
45912807,000005BF,false,Rx,0,8,00,00,00,00,28,00,00,1A,
45913020,000001DB,false,Rx,0,8,FF,C0,C0,6A,00,00,02,01,
45913302,000001DA,false,Rx,0,8,C1,64,18,00,00,01,03,25,
45913515,000001DC,false,Rx,0,8,6E,04,0F,FD,04,D8,C6,DD,
45913610,0000056E,false,Rx,0,1,46,00,00,00,00,00,00,00,
45916809,0000011A,false,Rx,0,8,01,40,80,55,00,00,01,0A,
45918873,000001D4,false,Rx,0,8,F7,07,00,00,47,46,30,1C,
45919092,000001F2,false,Rx,0,8,10,64,00,00,00,1E,01,0D,
45923066,000001DB,false,Rx,0,8,FF,C0,C0,6A,00,00,03,84,
45923286,000001DA,false,Rx,0,8,C1,64,18,00,00,01,00,2F,
45923499,000001DC,false,Rx,0,8,6E,04,0F,FD,08,C0,C7,92,
45926755,0000011A,false,Rx,0,8,01,40,80,55,40,00,02,C7,
45929116,000001D4,false,Rx,0,8,F7,07,00,00,87,46,30,D0,
45929337,000001F2,false,Rx,0,8,10,64,00,00,00,1E,02,0E,
45929610,00000284,false,Rx,0,8,00,00,00,00,00,00,43,C9,
45929823,0000050C,false,Rx,0,6,00,00,00,03,B2,9A,00,00,
45933014,000001DB,false,Rx,0,8,FF,C0,C0,6A,00,00,00,8E,
45933288,000001DA,false,Rx,0,8,C1,64,18,00,00,01,01,AA,
45933510,000001DC,false,Rx,0,8,6E,04,0F,FD,0C,C4,C0,36,
45936761,0000011A,false,Rx,0,8,01,40,80,AA,80,00,03,D1,
45939303,000001D4,false,Rx,0,8,F7,07,00,00,C7,46,30,17,
45939516,000001F2,false,Rx,0,8,10,64,00,00,00,1E,03,0F,
45939789,000005A9,false,Rx,0,8,7B,17,70,10,83,E0,00,00,
45943044,000001DB,false,Rx,0,8,FF,C0,C0,6A,00,00,01,0B,
45943255,000001DA,false,Rx,0,8,C1,64,18,00,00,01,02,A0,
45943536,000001DC,false,Rx,0,8,6E,04,0F,FD,01,08,D1,D6,
45946010,0000011A,false,Rx,0,8,01,40,80,AA,C0,00,00,1C,
45949577,000001D4,false,Rx,0,8,F7,07,00,00,07,46,30,DB,
45949849,000001F2,false,Rx,0,8,10,64,00,00,00,1E,00,0C,
45950065,00000284,false,Rx,0,8,00,00,00,00,00,00,44,CA,
45950285,0000050A,false,Rx,0,6,85,62,A0,1D,80,20,00,00,
45953060,000001DB,false,Rx,0,8,FF,C0,C0,6A,00,00,02,01,
45953272,000001DA,false,Rx,0,8,C1,64,18,00,00,01,03,25,
45953494,000001DC,false,Rx,0,8,6E,04,0F,FD,04,D8,C6,DD,
45956761,0000011A,false,Rx,0,8,01,40,80,55,00,00,01,0A,
45967757,000001D4,false,Rx,0,8,F7,07,00,00,47,46,30,1C,
45967821,000001F2,false,Rx,0,8,10,64,00,00,00,1E,01,0D,
45967885,000001DB,false,Rx,0,8,FF,C0,C0,6A,00,00,03,84,
45967948,000001DA,false,Rx,0,8,C1,64,18,00,00,01,00,2F,
45968011,000001DC,false,Rx,0,8,6E,04,0F,FD,08,C0,C7,92,
45968079,0000011A,false,Rx,0,8,01,40,80,55,40,00,02,C7,
45970040,000001D4,false,Rx,0,8,F7,07,00,00,87,46,30,D0,
45970314,000001F2,false,Rx,0,8,10,64,00,00,00,1E,02,0E,
45970528,00000284,false,Rx,0,8,00,00,00,00,00,00,45,CB,
45970741,0000050B,false,Rx,0,6,00,00,02,C0,00,60,00,00,
45973046,000001DB,false,Rx,0,8,FF,C0,C0,AA,00,00,00,A9,
45973267,000001DA,false,Rx,0,8,C1,64,18,00,00,01,01,AA,
45973480,000001DC,false,Rx,0,8,6E,04,0F,FD,0C,C4,C0,36,
45976729,0000011A,false,Rx,0,8,01,40,80,AA,80,00,03,D1,
45980286,000001D4,false,Rx,0,8,F7,07,00,00,C7,46,30,17,
45980500,000001F2,false,Rx,0,8,10,64,00,00,00,1E,03,0F,
45983123,000001DA,false,Rx,0,8,C1,64,18,00,00,01,02,A0,
45983343,000001DB,false,Rx,0,8,FF,C0,C0,AA,00,00,01,2C,
45983615,000001DC,false,Rx,0,8,6E,04,0F,FD,01,08,D1,D6,
45983829,0000055A,false,Rx,0,8,00,44,41,00,5F,43,5B,48,
45984060,0000055B,false,Rx,0,8,AB,00,55,00,FF,C0,12,73,
45986001,0000011A,false,Rx,0,8,01,40,80,AA,C0,00,00,1C,
45990571,000001D4,false,Rx,0,8,F7,07,00,00,07,46,30,DB,
45990783,000001F2,false,Rx,0,8,10,64,00,00,00,1E,00,0C,
45991059,00000284,false,Rx,0,8,00,00,00,00,00,00,46,CC,
45993119,000001DA,false,Rx,0,8,C1,64,18,00,00,01,03,25,
45993400,000001DB,false,Rx,0,8,FF,C0,C0,6A,00,00,02,01,
45993614,000001DC,false,Rx,0,8,6E,04,0F,FD,04,D8,C6,DD,
45993827,000005BC,false,Rx,0,8,25,43,29,39,90,06,21,4A,
45994102,000005C0,false,Rx,0,8,C0,72,72,00,66,D0,00,00,
45996761,0000011A,false,Rx,0,8,01,40,80,55,00,00,01,0A,
46000729,000001D4,false,Rx,0,8,F7,07,00,00,47,46,30,1C,
46001002,000001F2,false,Rx,0,8,10,64,00,00,00,1E,01,0D,
46003003,000001DB,false,Rx,0,8,FF,C0,C0,6A,00,00,03,84,
46003278,000001DA,false,Rx,0,8,C1,64,18,00,00,01,00,2F,
46003492,000001DC,false,Rx,0,8,6E,04,0F,FD,08,C0,C7,92,
46003764,0000054A,false,Rx,0,8,9E,00,70,06,22,00,00,3D,
46004215,0000054B,false,Rx,0,8,00,48,88,12,0C,00,00,00,
46005274,0000054C,false,Rx,0,8,8E,66,40,00,00,40,7B,00,
46006263,0000054F,false,Rx,0,8,44,01,00,00,07,40,88,33,
46006477,0000011A,false,Rx,0,8,01,40,80,55,40,00,02,C7,
46011104,000001D4,false,Rx,0,8,F7,07,00,00,87,46,30,D0,
46011325,000001F2,false,Rx,0,8,10,64,00,00,00,1E,02,0E,
46011538,00000284,false,Rx,0,8,00,00,00,00,00,00,47,CD,
46011751,000005B9,false,Rx,0,5,00,78,51,4A,28,00,00,00,
46012622,00000380,false,Rx,0,8,02,04,10,21,00,00,00,9E,
46012895,000005BF,false,Rx,0,8,00,00,00,00,28,00,00,2B,
46013110,000001DB,false,Rx,0,8,FF,A0,C0,6A,00,00,00,7D,
46013331,000001DA,false,Rx,0,8,C1,64,18,00,00,01,01,AA,
46013603,000001DC,false,Rx,0,8,6E,04,0F,FD,0C,C4,C0,36,
46013697,0000056E,false,Rx,0,1,46,00,00,00,00,00,00,00,
46016714,0000011A,false,Rx,0,8,01,40,80,AA,80,00,03,D1,
46026793,000001D4,false,Rx,0,8,F7,07,00,00,C7,46,30,17,
46026857,000001F2,false,Rx,0,8,10,64,00,00,00,1E,03,0F,
46026920,000001DB,false,Rx,0,8,FF,A0,C0,6A,00,00,01,F8,
46026983,000001DA,false,Rx,0,8,C1,64,18,00,00,01,02,A0,
46027048,000001DC,false,Rx,0,8,6E,04,0F,FD,01,08,D1,D6,
46027111,0000011A,false,Rx,0,8,01,40,80,AA,C0,00,00,1C,
46031500,000001D4,false,Rx,0,8,F7,07,00,00,07,46,30,DB,
46031773,000001F2,false,Rx,0,8,10,64,00,00,00,1E,00,0C,
46031987,00000284,false,Rx,0,8,00,00,00,00,00,00,48,CE,
46032201,0000050C,false,Rx,0,6,00,00,00,00,B2,A6,00,00,
46033012,000001DB,false,Rx,0,8,FF,A0,C0,6A,00,00,02,F2,
46033294,000001DA,false,Rx,0,8,C1,64,18,00,00,01,03,25,
46033507,000001DC,false,Rx,0,8,6E,04,0F,FD,04,D8,C6,DD,
46036702,0000011A,false,Rx,0,8,01,40,80,55,00,00,01,0A,
46041743,000001D4,false,Rx,0,8,F7,07,00,00,47,46,30,1C,
46041956,000001F2,false,Rx,0,8,10,64,00,00,00,1E,01,0D,
46043005,000001DB,false,Rx,0,8,FF,A0,C0,6A,00,00,03,77,
46043286,000001DA,false,Rx,0,8,C1,64,18,00,00,01,00,2F,
46043500,000001DC,false,Rx,0,8,6E,04,0F,FD,08,C0,C7,92,
46046401,0000011A,false,Rx,0,8,01,40,80,55,40,00,02,C7,
46051970,000001D4,false,Rx,0,8,F7,07,00,00,87,46,30,D0,
46052256,000001F2,false,Rx,0,8,10,64,00,00,00,1E,02,0E,
46052469,00000284,false,Rx,0,8,00,00,00,00,00,00,49,CF,
46052682,0000050A,false,Rx,0,6,85,02,A0,1D,80,20,00,00,
46053013,000001DB,false,Rx,0,8,FF,A0,C0,6A,00,00,00,7D,
46053295,000001DA,false,Rx,0,8,C1,64,18,00,00,01,01,AA,
46053509,000001DC,false,Rx,0,8,6E,04,0F,FD,0C,C4,C0,36,
46056713,0000011A,false,Rx,0,8,01,40,80,AA,80,00,03,D1,
46062169,000001D4,false,Rx,0,8,F7,07,00,00,C7,46,30,17,
46062449,000001F2,false,Rx,0,8,10,64,00,00,00,1E,03,0F,
46063015,000001DB,false,Rx,0,8,FF,A0,C0,6A,00,00,01,F8,
46063296,000001DA,false,Rx,0,8,C1,64,18,00,00,01,02,A0,
46063510,000001DC,false,Rx,0,8,6E,04,0F,FD,01,08,D1,D6,
46065926,0000011A,false,Rx,0,8,01,40,80,AA,C0,00,00,1C,
46072484,000001D4,false,Rx,0,8,F7,07,00,00,07,46,30,DB,
46072698,000001F2,false,Rx,0,8,10,64,00,00,00,1E,00,0C,
46072971,00000284,false,Rx,0,8,00,00,00,00,00,00,4A,D0,
46073188,000001DA,false,Rx,0,8,C1,64,18,00,00,01,03,25,
46073409,000001DB,false,Rx,0,8,FF,A0,C0,6A,00,00,02,F2,
46073682,000001DC,false,Rx,0,8,6E,04,0F,FD,04,D8,C6,DD,
46073895,0000050B,false,Rx,0,6,00,00,02,C0,00,60,00,00,
46076703,0000011A,false,Rx,0,8,01,40,80,55,00,00,01,0A,
46083932,000001D4,false,Rx,0,8,F7,07,00,00,47,46,30,1C,
46084003,000001F2,false,Rx,0,8,10,64,00,00,00,1E,01,0D,
46084110,000001DA,false,Rx,0,8,C1,64,18,00,00,01,00,2F,
46084173,000001DB,false,Rx,0,8,FF,A0,C0,6A,00,00,03,77,
46084244,000001DC,false,Rx,0,8,6E,04,0F,FD,08,C0,C7,92,
46084307,0000055A,false,Rx,0,8,00,44,41,00,5F,43,5B,48,
46084371,0000055B,false,Rx,0,8,AB,00,55,00,FF,C0,13,F6,
46086385,0000011A,false,Rx,0,8,01,40,80,55,40,00,02,C7,
46092969,000001D4,false,Rx,0,8,F7,07,00,00,87,46,30,D0,
46093251,000001DA,false,Rx,0,8,C1,64,18,00,00,01,01,AA,
46093464,000001DB,false,Rx,0,8,FF,A0,C0,6A,00,00,00,7D,
46093678,000001DC,false,Rx,0,8,6E,04,0F,FD,0C,C4,C0,36,
46093951,000001F2,false,Rx,0,8,10,64,00,00,00,1E,02,0E,
46094165,00000284,false,Rx,0,8,00,00,00,00,00,00,4B,D1,
46096707,0000011A,false,Rx,0,8,01,40,80,AA,80,00,03,D1,
46102996,000001DB,false,Rx,0,8,FF,A0,C0,6A,00,00,01,F8,
46103280,000001D4,false,Rx,0,8,F7,07,00,00,C7,46,30,17,
46103494,000001DA,false,Rx,0,8,C1,64,18,00,00,01,02,A0,
46103707,000001DC,false,Rx,0,8,6E,04,0F,FD,01,08,D1,D6,
46103979,000001F2,false,Rx,0,8,10,64,00,00,00,1E,03,0F,
46104197,0000054A,false,Rx,0,8,10,00,70,06,22,00,00,3D,
46105313,0000054B,false,Rx,0,8,00,48,88,12,0C,00,00,00,
46105939,0000011A,false,Rx,0,8,01,40,80,AA,C0,00,00,1C,
46106342,0000054C,false,Rx,0,8,8E,66,40,00,00,40,7B,00,
46107336,0000054F,false,Rx,0,8,44,01,00,00,07,80,88,33,
46112733,00000380,false,Rx,0,8,02,04,10,21,00,00,00,AF,
46112947,000005BF,false,Rx,0,8,00,00,00,00,28,00,00,3C,
46113222,000001DA,false,Rx,0,8,C1,64,18,00,00,01,03,25,
46113442,000001DB,false,Rx,0,8,FF,C0,C0,6A,00,00,02,01,
46113714,000001D4,false,Rx,0,8,F7,07,00,00,07,46,30,DB,
46113928,000001DC,false,Rx,0,8,6E,04,0F,FD,04,D8,C6,DD,
46114143,000001F2,false,Rx,0,8,10,64,00,00,00,1E,00,0C,
46114424,00000284,false,Rx,0,8,00,00,00,00,00,00,4C,D2,
46114519,0000056E,false,Rx,0,1,46,00,00,00,00,00,00,00,
46116640,0000011A,false,Rx,0,8,01,40,80,55,00,00,01,0A,
46122990,000001DB,false,Rx,0,8,FF,C0,C0,6A,00,00,03,84,
46123273,000001DA,false,Rx,0,8,C1,64,18,00,00,01,00,2F,
46123487,000001DC,false,Rx,0,8,6E,04,0F,FD,08,C0,C7,92,
46123758,000001D4,false,Rx,0,8,F7,07,00,00,47,46,30,1C,
46123972,000001F2,false,Rx,0,8,10,64,00,00,00,1E,01,0D,
46126401,0000011A,false,Rx,0,8,01,40,80,55,40,00,02,C7,
46133002,000001DB,false,Rx,0,8,FF,A0,C0,6A,00,00,00,7D,
46133284,000001DA,false,Rx,0,8,C1,64,18,00,00,01,01,AA,
46133498,000001DC,false,Rx,0,8,6E,04,0F,FD,0C,C4,C0,36,
46133948,000001D4,false,Rx,0,8,F7,07,00,00,87,46,30,D0,
46141665,000001F2,false,Rx,0,8,10,64,00,00,00,1E,02,0E,
46141729,00000284,false,Rx,0,8,00,00,00,00,00,00,4D,D3,
46141793,0000050C,false,Rx,0,6,00,00,00,01,B2,31,00,00,
46141856,0000011A,false,Rx,0,8,01,40,80,AA,80,00,03,D1,
46143025,000001DB,false,Rx,0,8,FF,A0,C0,6A,00,00,01,F8,
46143247,000001DA,false,Rx,0,8,C1,64,18,00,00,01,02,A0,
46143461,000001DC,false,Rx,0,8,6E,04,0F,FD,01,08,D1,D6,
46144151,000001D4,false,Rx,0,8,F7,07,00,00,C7,46,30,17,
46144373,000001F2,false,Rx,0,8,10,64,00,00,00,1E,03,0F,
46145891,0000011A,false,Rx,0,8,01,40,80,AA,C0,00,00,1C,
46153029,000001DB,false,Rx,0,8,FF,A0,C0,6A,00,00,02,F2,
46153251,000001DA,false,Rx,0,8,C1,64,18,00,00,01,03,25,
46153463,000001DC,false,Rx,0,8,6E,04,0F,FD,04,D8,C6,DD,
46154401,000001D4,false,Rx,0,8,F7,07,00,00,07,46,30,DB,
46154674,000001F2,false,Rx,0,8,10,64,00,00,00,1E,00,0C,
46154887,00000284,false,Rx,0,8,00,00,00,00,00,00,4E,D4,
46155102,0000050A,false,Rx,0,6,85,22,A0,1D,80,20,00,00,
46156630,0000011A,false,Rx,0,8,01,40,80,55,00,00,01,0A,
46162978,000001DB,false,Rx,0,8,FF,A0,C0,6A,00,00,03,77,
46163261,000001DA,false,Rx,0,8,C1,64,18,00,00,01,00,2F,
46163475,000001DC,false,Rx,0,8,6E,04,0F,FD,08,C0,C7,92,
46164642,000001D4,false,Rx,0,8,F7,07,00,00,47,46,30,1C,
46164855,000001F2,false,Rx,0,8,10,64,00,00,00,1E,01,0D,
46166329,0000011A,false,Rx,0,8,01,40,80,55,40,00,02,C7,
46172990,000001DB,false,Rx,0,8,FF,A0,C0,6A,00,00,00,7D,
46173274,000001DA,false,Rx,0,8,C1,64,18,00,00,01,01,AA,
46173488,000001DC,false,Rx,0,8,6E,04,0F,FD,0C,C4,C0,36,
46174889,000001D4,false,Rx,0,8,F7,07,00,00,87,46,30,D0,
46175164,000001F2,false,Rx,0,8,10,64,00,00,00,1E,02,0E,
46175384,00000284,false,Rx,0,8,00,00,00,00,00,00,4F,D5,
46175598,0000050B,false,Rx,0,6,00,00,02,C0,00,60,00,00,
46176646,0000011A,false,Rx,0,8,01,40,80,AA,80,00,03,D1,
46183114,000001DA,false,Rx,0,8,C1,64,18,00,00,01,02,A0,
46183335,000001DB,false,Rx,0,8,FF,A0,C0,6A,00,00,01,F8,
46183548,000001DC,false,Rx,0,8,6E,04,0F,FD,01,08,D1,D6,
46183821,0000055A,false,Rx,0,8,00,44,41,00,5F,43,5B,48,
46184040,0000055B,false,Rx,0,8,AB,00,AA,00,FF,C0,10,BB,
46185150,000001D4,false,Rx,0,8,F7,07,00,00,C7,46,30,17,
46185373,000001F2,false,Rx,0,8,10,64,00,00,00,1E,03,0F,
46185881,0000011A,false,Rx,0,8,01,40,80,AA,C0,00,00,1C,
46198364,000001DB,false,Rx,0,8,FF,A0,C0,6A,00,00,02,F2,
46198429,000001DA,false,Rx,0,8,C1,64,18,00,00,01,03,25,
46198492,000001DC,false,Rx,0,8,6E,04,0F,FD,04,D8,C6,DD,
46198555,000001D4,false,Rx,0,8,F7,07,00,00,07,46,30,DB,
46198618,000001F2,false,Rx,0,8,10,64,00,00,00,1E,00,0C,
46198681,00000284,false,Rx,0,8,00,00,00,00,00,00,50,D6,
46198744,0000011A,false,Rx,0,8,01,40,80,55,00,00,01,0A,
46203010,000001DB,false,Rx,0,8,FF,C0,C0,6A,00,00,03,84,
46203226,000001DA,false,Rx,0,8,C1,64,18,00,00,01,00,2F,
46203504,000001DC,false,Rx,0,8,6E,04,0F,FD,08,C0,C7,92,
46204379,0000054A,false,Rx,0,8,9E,00,70,06,22,00,00,3D,
46205427,0000054B,false,Rx,0,8,00,48,88,12,0C,00,00,00,
46205640,000001D4,false,Rx,0,8,F7,07,00,00,47,46,30,1C,
46205854,000001F2,false,Rx,0,8,10,64,00,00,00,1E,01,0D,
46206375,0000054C,false,Rx,0,8,8E,66,40,00,00,40,7B,00,
46206648,0000011A,false,Rx,0,8,01,40,80,55,40,00,02,C7,
46207401,0000054F,false,Rx,0,8,44,01,00,00,07,C0,88,33,
46212858,00000380,false,Rx,0,8,02,04,10,21,00,00,00,B0,
46213072,000001DB,false,Rx,0,8,FF,A0,C0,6A,00,00,00,7D,
46213353,000001DA,false,Rx,0,8,C1,64,18,00,00,01,01,AA,
46213566,000001DC,false,Rx,0,8,6E,04,0F,FD,0C,C4,C0,36,
46213661,0000056E,false,Rx,0,1,46,00,00,00,00,00,00,00,
46213932,000005BF,false,Rx,0,8,00,00,00,00,28,00,00,09,
46215938,000001D4,false,Rx,0,8,F7,07,00,00,87,46,30,D0,
46216154,000001F2,false,Rx,0,8,10,64,00,00,00,1E,02,0E,
46216435,00000284,false,Rx,0,8,00,00,00,00,00,00,51,D7,
46216648,0000011A,false,Rx,0,8,01,40,80,AA,80,00,03,D1,
46222996,000001DB,false,Rx,0,8,FF,A0,C0,6A,00,00,01,F8,
46223213,000001DA,false,Rx,0,8,C1,64,18,00,00,01,02,A0,
46223494,000001DC,false,Rx,0,8,6E,04,0F,FD,01,08,D1,D6,
46225792,0000011A,false,Rx,0,8,01,40,80,AA,C0,00,00,1C,
46226126,000001D4,false,Rx,0,8,F7,07,00,00,C7,46,30,17,
46226348,000001F2,false,Rx,0,8,10,64,00,00,00,1E,03,0F,
46232991,000001DB,false,Rx,0,8,FF,C0,C0,6A,00,00,02,01,
46233274,000001DA,false,Rx,0,8,C1,64,18,00,00,01,03,25,
46233488,000001DC,false,Rx,0,8,6E,04,0F,FD,04,D8,C6,DD,
46236387,000001D4,false,Rx,0,8,F7,07,00,00,07,46,30,DB,
46236600,0000011A,false,Rx,0,8,01,40,80,55,00,00,01,0A,
46236873,000001F2,false,Rx,0,8,10,64,00,00,00,1E,00,0C,
46237092,00000284,false,Rx,0,8,00,00,00,00,00,00,52,D8,
46237313,0000050C,false,Rx,0,6,00,00,00,02,5D,63,00,00,
46243002,000001DB,false,Rx,0,8,FF,C0,C0,6A,00,00,03,84,
46243217,000001DA,false,Rx,0,8,C1,64,18,00,00,01,00,2F,
46243498,000001DC,false,Rx,0,8,6E,04,0F,FD,08,C0,C7,92,
46246336,0000011A,false,Rx,0,8,01,40,80,55,40,00,02,C7,
46246549,000001D4,false,Rx,0,8,F7,07,00,00,47,46,30,1C,
46246822,000001F2,false,Rx,0,8,10,64,00,00,00,1E,01,0D,
46256414,000001DB,false,Rx,0,8,FF,C0,C0,6A,00,00,00,8E,
46256479,000001DA,false,Rx,0,8,C1,64,18,00,00,01,01,AA,
46256573,000001DC,false,Rx,0,8,6E,04,0F,FD,0C,C4,C0,36,
46256636,0000011A,false,Rx,0,8,01,40,80,AA,80,00,03,D1,
46256850,000001D4,false,Rx,0,8,F7,07,00,00,87,46,30,D0,
46257068,000001F2,false,Rx,0,8,10,64,00,00,00,1E,02,0E,
46257349,00000284,false,Rx,0,8,00,00,00,00,00,00,53,D9,
46257503,0000050A,false,Rx,0,6,85,42,A0,1D,80,20,00,00,
46263015,000001DB,false,Rx,0,8,FF,A0,C0,6A,00,00,01,F8,
46263238,000001DA,false,Rx,0,8,C1,64,18,00,00,01,02,A0,
46263451,000001DC,false,Rx,0,8,6E,04,0F,FD,01,08,D1,D6,
46265867,0000011A,false,Rx,0,8,01,40,80,AA,C0,00,00,1C,
46267099,000001D4,false,Rx,0,8,F7,07,00,00,C7,46,30,17,
46267320,000001F2,false,Rx,0,8,10,64,00,00,00,1E,03,0F,
46272972,000001DB,false,Rx,0,8,FF,A0,C0,6A,00,00,02,F2,
46273258,000001DA,false,Rx,0,8,C1,64,18,00,00,01,03,25,
46273472,000001DC,false,Rx,0,8,6E,04,0F,FD,04,D8,C6,DD,
46276603,0000011A,false,Rx,0,8,01,40,80,55,00,00,01,0A,
46277298,000001D4,false,Rx,0,8,F7,07,00,00,07,46,30,DB,
46277571,000001F2,false,Rx,0,8,10,64,00,00,00,1E,00,0C,
46277784,00000284,false,Rx,0,8,00,00,00,00,00,00,54,DA,
46277998,0000050B,false,Rx,0,6,00,00,02,C0,00,60,00,00,
46283097,000001DA,false,Rx,0,8,C1,64,18,00,00,01,00,2F,
46283320,000001DB,false,Rx,0,8,FF,C0,C0,6A,00,00,03,84,
46283592,000001DC,false,Rx,0,8,6E,04,0F,FD,08,C0,C7,92,
46283806,0000055A,false,Rx,0,8,00,44,41,00,5F,43,5B,48,
46284019,0000055B,false,Rx,0,8,AB,00,AA,00,FF,C0,11,3E,
46286264,0000011A,false,Rx,0,8,01,40,80,55,40,00,02,C7,
46287612,000001D4,false,Rx,0,8,F7,07,00,00,47,46,30,1C,
46287826,000001F2,false,Rx,0,8,10,64,00,00,00,1E,01,0D,
46292968,000001DB,false,Rx,0,8,FF,C0,C0,6A,00,00,00,8E,
46293250,000001DA,false,Rx,0,8,C1,64,18,00,00,01,01,AA,
46293463,000001DC,false,Rx,0,8,6E,04,0F,FD,0C,C4,C0,36,
46296537,0000011A,false,Rx,0,8,01,40,80,AA,80,00,03,D1,
46297821,000001D4,false,Rx,0,8,F7,07,00,00,87,46,30,D0,
46298038,000001F2,false,Rx,0,8,10,64,00,00,00,1E,02,0E,
46298318,00000284,false,Rx,0,8,00,00,00,00,00,00,55,DB,
46302996,000001DB,false,Rx,0,8,FF,C0,C0,6A,00,00,01,0B,
46303213,000001DA,false,Rx,0,8,C1,64,18,00,00,01,02,A0,
46303494,000001DC,false,Rx,0,8,6E,04,0F,FD,01,08,D1,D6,
46303708,0000054A,false,Rx,0,8,10,00,70,06,22,00,00,3D,
46304460,0000054B,false,Rx,0,8,00,48,88,12,0C,00,00,00,
46305454,0000054C,false,Rx,0,8,8E,66,40,00,00,40,7B,00,
46305785,0000011A,false,Rx,0,8,01,40,80,AA,C0,00,00,1C,
46313931,0000054F,false,Rx,0,8,44,01,00,00,07,00,88,33,
46314029,000001D4,false,Rx,0,8,F7,07,00,00,C7,46,30,17,
46314092,000001F2,false,Rx,0,8,10,64,00,00,00,1E,03,0F,
46314155,00000380,false,Rx,0,8,02,04,10,21,00,00,00,8D,
46314218,000001DA,false,Rx,0,8,C1,64,18,00,00,01,03,25,
46314289,000001DB,false,Rx,0,8,FF,C0,C0,6A,00,00,02,01,
46314353,000001DC,false,Rx,0,8,6E,04,0F,FD,04,D8,C6,DD,
46314416,0000056E,false,Rx,0,1,46,00,00,00,00,00,00,00,
46314478,000005BF,false,Rx,0,8,00,00,00,00,28,00,00,1A,
46316539,0000011A,false,Rx,0,8,01,40,80,55,00,00,01,0A,
46318303,000001D4,false,Rx,0,8,F7,07,00,00,07,46,30,DB,
46318517,000001F2,false,Rx,0,8,10,64,00,00,00,1E,00,0C,
46318790,00000284,false,Rx,0,8,00,00,00,00,00,00,56,DC,
46322997,000001DB,false,Rx,0,8,FF,C0,C0,6A,00,00,03,84,
46323213,000001DA,false,Rx,0,8,C1,64,18,00,00,01,00,2F,
46323493,000001DC,false,Rx,0,8,6E,04,0F,FD,08,C0,C7,92,
46326300,0000011A,false,Rx,0,8,01,40,80,55,40,00,02,C7,
46328597,000001D4,false,Rx,0,8,F7,07,00,00,47,46,30,1C,
46328811,000001F2,false,Rx,0,8,10,64,00,00,00,1E,01,0D,
46329085,00000284,false,Rx,0,8,00,00,00,00,00,00,57,DD,
46332997,000001DB,false,Rx,0,8,FF,C0,C0,6A,00,00,00,8E,
46333213,000001DA,false,Rx,0,8,C1,64,18,00,00,01,01,AA,
46333434,000001DC,false,Rx,0,8,6E,04,0F,FD,0C,C4,C0,36,
46336569,0000011A,false,Rx,0,8,01,40,80,AA,80,00,03,D1,
46338808,000001D4,false,Rx,0,8,F7,07,00,00,87,46,30,D0,
46339021,000001F2,false,Rx,0,8,10,64,00,00,00,1E,02,0E,
46339244,0000050C,false,Rx,0,6,00,00,00,03,5D,F4,00,00,
46342965,000001DB,false,Rx,0,8,FF,C0,C0,6A,00,00,01,0B,
46343247,000001DA,false,Rx,0,8,C1,64,18,00,00,01,02,A0,
46343461,000001DC,false,Rx,0,8,6E,04,0F,FD,01,08,D1,D6,
46345820,0000011A,false,Rx,0,8,01,40,80,AA,C0,00,00,1C,
46349029,000001D4,false,Rx,0,8,F7,07,00,00,C7,46,30,17,
46349244,000001F2,false,Rx,0,8,10,64,00,00,00,1E,03,0F,
46349516,00000284,false,Rx,0,8,00,00,00,00,00,00,58,DE,
46353003,000001DB,false,Rx,0,8,FF,C0,C0,6A,00,00,02,01,
46353219,000001DA,false,Rx,0,8,C1,64,18,00,00,01,03,25,
46353440,000001DC,false,Rx,0,8,6E,04,0F,FD,04,D8,C6,DD,
46356525,0000011A,false,Rx,0,8,01,40,80,55,00,00,01,0A,
46359244,000001D4,false,Rx,0,8,F7,07,00,00,07,46,30,DB,
46359517,000001F2,false,Rx,0,8,10,64,00,00,00,1E,00,0C,
46359671,0000050A,false,Rx,0,6,85,62,A0,1D,80,20,00,00,
46362984,000001DB,false,Rx,0,8,FF,C0,C0,6A,00,00,03,84,
46363266,000001DA,false,Rx,0,8,C1,64,18,00,00,01,00,2F,
46363480,000001DC,false,Rx,0,8,6E,04,0F,FD,08,C0,C7,92,
46371410,0000011A,false,Rx,0,8,01,40,80,55,40,00,02,C7,
46371474,000001D4,false,Rx,0,8,F7,07,00,00,47,46,30,1C,
46371537,000001F2,false,Rx,0,8,10,64,00,00,00,1E,01,0D,
46371600,00000284,false,Rx,0,8,00,00,00,00,00,00,59,DF,
46373003,000001DB,false,Rx,0,8,FF,A0,C0,6A,00,00,00,7D,
46373219,000001DA,false,Rx,0,8,C1,64,18,00,00,01,01,AA,
46373441,000001DC,false,Rx,0,8,6E,04,0F,FD,0C,C4,C0,36,
46376519,0000011A,false,Rx,0,8,01,40,80,AA,80,00,03,D1,
46379712,000001D4,false,Rx,0,8,F7,07,00,00,87,46,30,D0,
46379985,000001F2,false,Rx,0,8,10,64,00,00,00,1E,02,0E,
46380200,0000050B,false,Rx,0,6,00,00,02,C0,00,60,00,00,
46383053,000001DA,false,Rx,0,8,C1,64,18,00,00,01,02,A0,
46383333,000001DB,false,Rx,0,8,FF,A0,C0,6A,00,00,01,F8,
46383546,000001DC,false,Rx,0,8,6E,04,0F,FD,01,08,D1,D6,
46383760,0000055A,false,Rx,0,8,00,44,41,00,5F,43,5B,48,
46384034,0000055B,false,Rx,0,8,AB,00,AA,00,FF,C0,12,34,
46385740,0000011A,false,Rx,0,8,01,40,80,AA,C0,00,00,1C,
46390069,000001D4,false,Rx,0,8,F7,07,00,00,C7,46,30,17,
46390290,000001F2,false,Rx,0,8,10,64,00,00,00,1E,03,0F,
46390503,00000284,false,Rx,0,8,00,00,00,00,00,00,5A,E0,
46392958,000001DB,false,Rx,0,8,FF,A0,C0,6A,00,00,02,F2,
46393241,000001DA,false,Rx,0,8,C1,64,18,00,00,01,03,25,
46393454,000001DC,false,Rx,0,8,6E,04,0F,FD,04,D8,C6,DD,
46396532,0000011A,false,Rx,0,8,01,40,80,55,00,00,01,0A,
46400197,000001D4,false,Rx,0,8,F7,07,00,00,07,46,30,DB,
46400476,000001F2,false,Rx,0,8,10,64,00,00,00,1E,00,0C,
46402949,000001DB,false,Rx,0,8,FF,A0,C0,6A,00,00,03,77,
46403222,000001DA,false,Rx,0,8,C1,64,18,00,00,01,00,2F,
46403444,000001DC,false,Rx,0,8,6E,04,0F,FD,08,C0,C7,92,
46403716,0000054A,false,Rx,0,8,9E,00,70,06,22,00,00,3D,
46404529,0000054B,false,Rx,0,8,00,48,88,12,0C,00,00,00,
46405578,0000054C,false,Rx,0,8,8E,66,40,00,00,40,7B,00,
46406210,0000011A,false,Rx,0,8,01,40,80,55,40,00,02,C7,
46406550,0000054F,false,Rx,0,8,44,01,00,00,07,40,88,33,
46410576,000001D4,false,Rx,0,8,F7,07,00,00,47,46,30,1C,
46410789,000001F2,false,Rx,0,8,10,64,00,00,00,1E,01,0D,
46411065,00000284,false,Rx,0,8,00,00,00,00,00,00,5B,E1,
46413006,000001DB,false,Rx,0,8,FF,A0,C0,6A,00,00,00,7D,
46413221,000001DA,false,Rx,0,8,C1,64,18,00,00,01,01,AA,
46413442,000001DC,false,Rx,0,8,6E,04,0F,FD,0C,C4,C0,36,
46413715,00000380,false,Rx,0,8,02,04,10,21,00,00,00,9E,
46413810,0000056E,false,Rx,0,1,46,00,00,00,00,00,00,00,
46414085,000005BF,false,Rx,0,8,00,00,00,00,28,00,00,2B,
46416513,0000011A,false,Rx,0,8,01,40,80,AA,80,00,03,D1,
46420717,000001D4,false,Rx,0,8,F7,07,00,00,87,46,30,D0,
46420930,000001F2,false,Rx,0,8,10,64,00,00,00,1E,02,0E,
46429257,000001DB,false,Rx,0,8,FF,A0,C0,6A,00,00,01,F8,
46429321,000001DA,false,Rx,0,8,C1,64,18,00,00,01,02,A0,
46429384,000001DC,false,Rx,0,8,6E,04,0F,FD,01,08,D1,D6,
46429447,0000011A,false,Rx,0,8,01,40,80,AA,C0,00,00,1C,
46431028,000001D4,false,Rx,0,8,F7,07,00,00,C7,46,30,17,
46431308,000001F2,false,Rx,0,8,10,64,00,00,00,1E,03,0F,
46431522,00000284,false,Rx,0,8,00,00,00,00,00,00,5C,E2,
46432985,000001DB,false,Rx,0,8,FF,C0,C0,6A,00,00,02,01,
46433200,000001DA,false,Rx,0,8,C1,64,18,00,00,01,03,25,
46433480,000001DC,false,Rx,0,8,6E,04,0F,FD,04,D8,C6,DD,
46436493,0000011A,false,Rx,0,8,01,40,00,55,00,00,01,15,
46441300,000001D4,false,Rx,0,8,F7,07,00,00,07,46,30,DB,
46441514,000001F2,false,Rx,0,8,10,64,00,00,00,1E,00,0C,
46441726,0000050C,false,Rx,0,6,00,00,00,00,5D,C8,00,00,
46442951,000001DB,false,Rx,0,8,FF,A0,C0,6A,00,00,03,77,
46443225,000001DA,false,Rx,0,8,C1,64,18,00,00,01,00,2F,
46443445,000001DC,false,Rx,0,8,6E,04,0F,FD,08,C0,C7,92,
46446216,0000011A,false,Rx,0,8,01,40,00,55,40,00,02,D8,
46451506,000001D4,false,Rx,0,8,F7,07,00,00,47,46,30,1C,
46451779,000001F2,false,Rx,0,8,10,64,00,00,00,1E,01,0D,
46451992,00000284,false,Rx,0,8,00,00,00,00,00,00,5D,E3,
46452210,000005A9,false,Rx,0,8,7B,17,70,10,83,E0,00,00,
46452961,000001DB,false,Rx,0,8,FF,C0,C0,6A,00,00,00,8E,
46453245,000001DA,false,Rx,0,8,C1,64,18,00,00,01,01,AA,
46453459,000001DC,false,Rx,0,8,6E,04,0F,FD,0C,C4,C0,36,
46456481,0000011A,false,Rx,0,8,01,40,00,AA,80,00,03,CE,
46461759,000001D4,false,Rx,0,8,F7,07,00,00,87,46,30,D0,
46461973,000001F2,false,Rx,0,8,10,64,00,00,00,1E,02,0E,
46462191,0000050A,false,Rx,0,6,85,02,A0,1D,80,20,00,00,
46463001,000001DB,false,Rx,0,8,FF,C0,C0,6A,00,00,01,0B,
46463216,000001DA,false,Rx,0,8,C1,64,18,00,00,01,02,A0,
46463438,000001DC,false,Rx,0,8,6E,04,0F,FD,01,08,D1,D6,
46465736,0000011A,false,Rx,0,8,01,40,00,AA,C0,00,00,03,
46471984,000001D4,false,Rx,0,8,F7,07,00,00,C7,46,30,17,
46472199,000001F2,false,Rx,0,8,10,64,00,00,00,1E,03,0F,
46472479,00000284,false,Rx,0,8,00,00,00,00,00,00,5E,E4,
46472988,000001DB,false,Rx,0,8,FF,C0,C0,6A,00,00,02,01,
46473204,000001DA,false,Rx,0,8,C1,64,18,00,00,01,03,25,
46473425,000001DC,false,Rx,0,8,6E,04,0F,FD,04,D8,C6,DD,
46476441,0000011A,false,Rx,0,8,01,40,00,55,00,00,01,15,
46485993,000001D4,false,Rx,0,8,F7,07,00,00,07,46,30,DB,
46486060,000001F2,false,Rx,0,8,10,64,00,00,00,1E,00,0C,
46486155,0000050B,false,Rx,0,6,00,00,02,C0,00,60,00,00,
46486218,000001DA,false,Rx,0,8,C1,64,18,00,00,01,00,2F,
46486289,000001DB,false,Rx,0,8,FF,C0,C0,6A,00,00,03,84,
46486352,000001DC,false,Rx,0,8,6E,04,0F,FD,08,C0,C7,92,
46486415,0000055A,false,Rx,0,8,00,44,41,00,5F,43,5B,48,
46486478,0000055B,false,Rx,0,8,AB,00,AA,00,FF,C0,13,B1,
46486542,0000011A,false,Rx,0,8,01,40,00,55,40,00,02,D8,
46492537,000001D4,false,Rx,0,8,F7,07,00,00,47,46,30,1C,
46492751,000001F2,false,Rx,0,8,10,64,00,00,00,1E,01,0D,
46493024,00000284,false,Rx,0,8,00,00,00,00,00,00,5F,E5,
46493246,000001DA,false,Rx,0,8,C1,64,18,00,00,01,01,AA,
46493519,000001DB,false,Rx,0,8,FF,C0,C0,6A,00,00,00,8E,
46493731,000001DC,false,Rx,0,8,6E,04,0F,FD,0C,C4,C0,36,
46493965,000005BC,false,Rx,0,8,25,43,2A,39,91,06,40,96,
46494180,000005C0,false,Rx,0,8,40,74,74,00,66,0C,00,00,
46496441,0000011A,false,Rx,0,8,01,40,00,AA,80,00,03,CE,
46502733,000001D4,false,Rx,0,8,F7,07,00,00,87,46,30,D0,
46502946,000001F2,false,Rx,0,8,10,64,00,00,00,1E,02,0E,
46503221,000001DA,false,Rx,0,8,C1,64,18,00,00,01,02,A0,
46503441,000001DB,false,Rx,0,8,FF,C0,C0,6A,00,00,01,0B,
46503654,000001DC,false,Rx,0,8,6E,04,0F,FD,01,08,D1,D6,
46503927,0000054A,false,Rx,0,8,10,00,70,06,22,00,00,3D,
46504621,0000054B,false,Rx,0,8,00,48,88,12,0C,00,00,00,
46505612,0000054C,false,Rx,0,8,8E,66,40,00,00,40,7B,00,
46505885,0000011A,false,Rx,0,8,01,40,00,AA,C0,00,00,03,
46506639,0000054F,false,Rx,0,8,44,01,00,00,07,80,88,33,
46512991,000001DB,false,Rx,0,8,FF,A0,C0,6A,00,00,02,F2,
46513206,000001D4,false,Rx,0,8,F7,07,00,00,C7,46,30,17,
46513427,000001DA,false,Rx,0,8,C1,64,18,00,00,01,03,25,
46513700,000001DC,false,Rx,0,8,6E,04,0F,FD,04,D8,C6,DD,
46513914,000001F2,false,Rx,0,8,10,64,00,00,00,1E,03,0F,
46514190,00000284,false,Rx,0,8,00,00,00,00,00,00,60,E6,
46514412,00000380,false,Rx,0,8,02,04,10,21,00,00,00,AF,
46514506,0000056E,false,Rx,0,1,46,00,00,00,00,00,00,00,
46514778,000005BF,false,Rx,0,8,00,00,00,00,28,00,00,3C,
46516485,0000011A,false,Rx,0,8,01,40,00,55,00,00,01,15,
46522950,000001DB,false,Rx,0,8,FF,C0,C0,6A,00,00,03,84,
46523224,000001DA,false,Rx,0,8,C1,64,18,00,00,01,00,2F,
46523445,000001D4,false,Rx,0,8,F7,07,00,00,07,46,30,DB,
46523659,000001DC,false,Rx,0,8,6E,04,0F,FD,08,C0,C7,92,
46523931,000001F2,false,Rx,0,8,10,64,00,00,00,1E,00,0C,
46524090,000005B9,false,Rx,0,5,48,78,51,4A,28,00,00,00,
46526394,0000011A,false,Rx,0,8,01,40,00,55,40,00,02,D8,
46532978,000001DB,false,Rx,0,8,FF,C0,C0,6A,00,00,00,8E,
46533194,000001DA,false,Rx,0,8,C1,64,18,00,00,01,01,AA,
46533473,000001DC,false,Rx,0,8,6E,04,0F,FD,0C,C4,C0,36,
46533687,000001D4,false,Rx,0,8,F7,07,00,00,47,46,30,1C,
46533901,000001F2,false,Rx,0,8,10,64,00,00,00,1E,01,0D,
46534173,00000284,false,Rx,0,8,00,00,00,00,00,00,61,E7,
46544827,0000011A,false,Rx,0,8,01,40,00,AA,80,00,03,CE,
46544892,000001DB,false,Rx,0,8,FF,C0,C0,6A,00,00,01,0B,
46544955,000001DA,false,Rx,0,8,C1,64,18,00,00,01,02,A0,
46545018,000001DC,false,Rx,0,8,6E,04,0F,FD,01,08,D1,D6,
46545083,000001D4,false,Rx,0,8,F7,07,00,00,87,46,30,D0,
46545146,000001F2,false,Rx,0,8,10,64,00,00,00,1E,02,0E,
46545209,0000050C,false,Rx,0,6,00,00,00,01,5D,5F,00,00,
46545666,0000011A,false,Rx,0,8,01,40,00,AA,C0,00,00,03,
46552978,000001DB,false,Rx,0,8,FF,C0,C0,6A,00,00,02,01,
46553193,000001DA,false,Rx,0,8,C1,64,18,00,00,01,03,25,
46553414,000001DC,false,Rx,0,8,6E,04,0F,FD,04,D8,C6,DD,
46553991,000001D4,false,Rx,0,8,F7,07,00,00,C7,46,30,17,
46554208,000001F2,false,Rx,0,8,10,64,00,00,00,1E,03,0F,
46554430,00000284,false,Rx,0,8,00,00,00,00,00,00,62,E8,
46556435,0000011A,false,Rx,0,8,01,40,00,55,00,00,01,15,
46562966,000001DB,false,Rx,0,8,FF,C0,C0,6A,00,00,03,84,
46563180,000001DA,false,Rx,0,8,C1,64,18,00,00,01,00,2F,
46563461,000001DC,false,Rx,0,8,6E,04,0F,FD,08,C0,C7,92,
46564150,000001D4,false,Rx,0,8,F7,07,00,00,07,46,30,DB,
46564430,000001F2,false,Rx,0,8,10,64,00,00,00,1E,00,0C,
46564644,0000050A,false,Rx,0,6,85,22,A0,1D,80,20,00,00,
46566411,0000011A,false,Rx,0,8,01,40,00,55,40,00,02,D8,
46572953,000001DB,false,Rx,0,8,FF,C0,C0,6A,00,00,00,8E,
46573235,000001DA,false,Rx,0,8,C1,64,18,00,00,01,01,AA,
46573449,000001DC,false,Rx,0,8,6E,04,0F,FD,0C,C4,C0,36,
46574441,000001D4,false,Rx,0,8,F7,07,00,00,47,46,30,1C,
46574655,000001F2,false,Rx,0,8,10,64,00,00,00,1E,01,0D,
46574928,00000284,false,Rx,0,8,00,00,00,00,00,00,63,E9,
46576401,0000011A,false,Rx,0,8,01,40,00,AA,80,00,03,CE,
46583015,000001DA,false,Rx,0,8,C1,64,18,00,00,01,02,A0,
46583297,000001DB,false,Rx,0,8,FF,C0,C0,6A,00,00,01,0B,
46583510,000001DC,false,Rx,0,8,6E,04,0F,FD,01,08,D1,D6,
46583723,0000055A,false,Rx,0,8,00,44,41,00,5F,43,5B,48,
46583996,0000055B,false,Rx,0,8,AB,00,AA,00,FF,C0,10,BB,
46584634,000001D4,false,Rx,0,8,F7,07,00,00,87,46,30,D0,
46584907,000001F2,false,Rx,0,8,10,64,00,00,00,1E,02,0E,
46585123,0000050B,false,Rx,0,6,00,00,02,C0,00,60,00,00,
46585698,0000011A,false,Rx,0,8,01,40,00,AA,C0,00,00,03,
46592944,000001DB,false,Rx,0,8,FF,C0,C0,6A,00,00,02,01,
46593218,000001DA,false,Rx,0,8,C1,64,18,00,00,01,03,25,
46593439,000001DC,false,Rx,0,8,6E,04,0F,FD,04,D8,C6,DD,
46601771,000001D4,false,Rx,0,8,F7,07,00,00,C7,46,30,17,
46601835,000001F2,false,Rx,0,8,10,64,00,00,00,1E,03,0F,
46601898,00000284,false,Rx,0,8,00,00,00,00,00,00,64,EA,
46601962,0000011A,false,Rx,0,8,01,40,00,55,00,00,01,15,
46602951,000001DB,false,Rx,0,8,FF,C0,C0,6A,00,00,03,84,
46603226,000001DA,false,Rx,0,8,C1,64,18,00,00,01,00,2F,
46603447,000001DC,false,Rx,0,8,6E,04,0F,FD,08,C0,C7,92,
46603719,0000054A,false,Rx,0,8,9E,00,70,06,22,00,00,3D,
46604709,0000054B,false,Rx,0,8,00,48,88,12,0C,00,00,00,
46605160,000001D4,false,Rx,0,8,F7,07,00,00,07,46,30,DB,
46605382,000001F2,false,Rx,0,8,10,64,00,00,00,1E,00,0C,
46605714,0000054C,false,Rx,0,8,8E,66,40,00,00,40,7B,00,
46606349,0000011A,false,Rx,0,8,01,40,00,55,40,00,02,D8,
46606739,0000054F,false,Rx,0,8,44,01,00,00,07,C0,88,33,
46612969,000001DB,false,Rx,0,8,FF,C0,C0,6A,00,00,00,8E,
46613184,000001DA,false,Rx,0,8,C1,64,18,00,00,01,01,AA,
46613405,000001DC,false,Rx,0,8,6E,04,0F,FD,0C,C4,C0,36,
46613677,00000380,false,Rx,0,8,02,04,10,21,00,00,00,B0,
46613772,0000056E,false,Rx,0,1,46,00,00,00,00,00,00,00,
46614046,000005BF,false,Rx,0,8,00,00,00,00,28,00,00,09,
46615457,000001D4,false,Rx,0,8,F7,07,00,00,47,46,30,1C,
46615730,000001F2,false,Rx,0,8,10,64,00,00,00,1E,01,0D,
46615943,00000284,false,Rx,0,8,00,00,00,00,00,00,65,EB,
46616401,0000011A,false,Rx,0,8,01,40,00,AA,80,00,03,CE,
46622990,000001DB,false,Rx,0,8,FF,C0,C0,6A,00,00,01,0B,
46623207,000001DA,false,Rx,0,8,C1,64,18,00,00,01,02,A0,
46623430,000001DC,false,Rx,0,8,6E,04,0F,FD,01,08,D1,D6,
46625612,000001D4,false,Rx,0,8,F7,07,00,00,87,46,30,D0,
46625885,0000011A,false,Rx,0,8,01,40,00,AA,C0,00,00,03,
46626101,000001F2,false,Rx,0,8,10,64,00,00,00,1E,02,0E,
46632990,000001DB,false,Rx,0,8,FF,C0,C0,6A,00,00,02,01,
46633207,000001DA,false,Rx,0,8,C1,64,18,00,00,01,03,25,
46633429,000001DC,false,Rx,0,8,6E,04,0F,FD,04,D8,C6,DD,
46635907,000001D4,false,Rx,0,8,F7,07,00,00,C7,46,30,17,
46636182,000001F2,false,Rx,0,8,10,64,00,00,00,1E,03,0F,
46636403,0000011A,false,Rx,0,8,01,40,00,55,00,00,01,15,
46636617,00000284,false,Rx,0,8,00,00,00,00,00,00,66,EC,
46642931,000001DB,false,Rx,0,8,FF,C0,C0,6A,00,00,03,84,
46643207,000001DA,false,Rx,0,8,C1,64,18,00,00,01,00,2F,
46643429,000001DC,false,Rx,0,8,6E,04,0F,FD,08,C0,C7,92,
46646145,000001D4,false,Rx,0,8,F7,07,00,00,07,46,30,DB,
46646366,0000011A,false,Rx,0,8,01,40,00,55,40,00,02,D8,
46646580,000001F2,false,Rx,0,8,10,64,00,00,00,1E,00,0C,
46646793,0000050C,false,Rx,0,6,00,00,00,02,5D,63,00,00,
46659241,000001DB,false,Rx,0,8,FF,C0,C0,6A,00,00,00,8E,
46659306,000001DA,false,Rx,0,8,C1,64,18,00,00,01,01,AA,
46659369,000001DC,false,Rx,0,8,6E,04,0F,FD,0C,C4,C0,36,
46659432,0000011A,false,Rx,0,8,01,40,00,AA,80,00,03,CE,
46659495,000001D4,false,Rx,0,8,F7,07,00,00,47,46,30,1C,
46659558,000001F2,false,Rx,0,8,10,64,00,00,00,1E,01,0D,
46659621,00000284,false,Rx,0,8,00,00,00,00,00,00,67,ED,
46662931,000001DB,false,Rx,0,8,FF,C0,C0,6A,00,00,01,0B,
46663207,000001DA,false,Rx,0,8,C1,64,18,00,00,01,02,A0,
46663429,000001DC,false,Rx,0,8,6E,04,0F,FD,01,08,D1,D6,
46665670,0000011A,false,Rx,0,8,01,40,00,AA,C0,00,00,03,
46666601,000001D4,false,Rx,0,8,F7,07,00,00,87,46,30,D0,
46666873,000001F2,false,Rx,0,8,10,64,00,00,00,1E,02,0E,
46667089,0000050A,false,Rx,0,6,85,42,A0,1D,80,20,00,00,
46672966,000001DB,false,Rx,0,8,FF,A0,C0,6A,00,00,02,F2,
46673182,000001DA,false,Rx,0,8,C1,64,18,00,00,01,03,25,
46673402,000001DC,false,Rx,0,8,6E,04,0F,FD,04,D8,C6,DD,
46676360,0000011A,false,Rx,0,8,01,40,00,55,00,00,01,15,
46676868,000001D4,false,Rx,0,8,F7,07,00,00,C7,46,30,17,
46677084,000001F2,false,Rx,0,8,10,64,00,00,00,1E,03,0F,
46677365,00000284,false,Rx,0,8,00,00,00,00,00,00,68,EE,
46682997,000001DA,false,Rx,0,8,C1,64,18,00,00,01,00,2F,
46683278,000001DB,false,Rx,0,8,FF,C0,C0,6A,00,00,03,84,
46683491,000001DC,false,Rx,0,8,6E,04,0F,FD,08,C0,C7,92,
46683704,0000055A,false,Rx,0,8,00,44,41,00,5F,43,5B,48,
46683977,0000055B,false,Rx,0,8,AB,00,55,00,FF,C0,11,79,
46686289,0000011A,false,Rx,0,8,01,40,00,55,40,00,02,D8,
46687094,000001D4,false,Rx,0,8,F7,07,00,00,07,46,30,DB,
46687376,000001F2,false,Rx,0,8,10,64,00,00,00,1E,00,0C,
46687589,0000050B,false,Rx,0,6,00,00,02,C0,00,60,00,00,
46692984,000001DB,false,Rx,0,8,FF,C0,C0,6A,00,00,00,8E,
46693198,000001DA,false,Rx,0,8,C1,64,18,00,00,01,01,AA,
46693420,000001DC,false,Rx,0,8,6E,04,0F,FD,0C,C4,C0,36,
46696376,0000011A,false,Rx,0,8,01,40,00,AA,80,00,03,CE,
46697367,000001D4,false,Rx,0,8,F7,07,00,00,47,46,30,1C,
46697580,000001F2,false,Rx,0,8,10,64,00,00,00,1E,01,0D,
46697853,00000284,false,Rx,0,8,00,00,00,00,00,00,69,EF,
46702924,000001DB,false,Rx,0,8,FF,C0,C0,6A,00,00,01,0B,
46703198,000001DA,false,Rx,0,8,C1,64,18,00,00,01,02,A0,
46703420,000001DC,false,Rx,0,8,6E,04,0F,FD,01,08,D1,D6,
46704764,0000054A,false,Rx,0,8,10,00,70,06,22,00,00,3D,
46705578,0000011A,false,Rx,0,8,01,40,00,AA,C0,00,00,03,
46705791,0000054B,false,Rx,0,8,00,48,88,12,0C,00,00,00,
46706779,0000054C,false,Rx,0,8,8E,66,40,00,00,40,7B,00,
46707591,000001D4,false,Rx,0,8,F7,07,00,00,87,46,30,D0,
46707863,000001F2,false,Rx,0,8,10,64,00,00,00,1E,02,0E,
46708081,0000054F,false,Rx,0,8,44,01,00,00,07,00,88,33,
46717360,000001DB,false,Rx,0,8,FF,C0,C0,6A,00,00,02,01,
46717424,000001DA,false,Rx,0,8,C1,64,18,00,00,01,03,25,
46717487,000001DC,false,Rx,0,8,6E,04,0F,FD,04,D8,C6,DD,
46717551,00000380,false,Rx,0,8,02,04,10,21,00,00,00,8D,
46717614,0000056E,false,Rx,0,1,46,00,00,00,00,00,00,00,
46717677,000005BF,false,Rx,0,8,00,00,00,00,28,00,00,1A,
46717740,0000011A,false,Rx,0,8,01,40,00,55,00,00,01,15,
46717835,000001D4,false,Rx,0,8,F7,07,00,00,C7,46,30,17,
46718110,000001F2,false,Rx,0,8,10,64,00,00,00,1E,03,0F,
46718332,00000284,false,Rx,0,8,00,00,00,00,00,00,6A,F0,
46722950,000001DB,false,Rx,0,8,FF,A0,C0,6A,00,00,03,77,
46723165,000001DA,false,Rx,0,8,C1,64,18,00,00,01,00,2F,
46723445,000001DC,false,Rx,0,8,6E,04,0F,FD,08,C0,C7,92,
46726275,0000011A,false,Rx,0,8,01,40,00,55,40,00,02,D8,
46728032,000001D4,false,Rx,0,8,F7,07,00,00,07,46,30,DB,
46728306,000001F2,false,Rx,0,8,10,64,00,00,00,1E,00,0C,
46732924,000001DB,false,Rx,0,8,FF,C0,C0,6A,00,00,00,8E,
46733199,000001DA,false,Rx,0,8,C1,64,18,00,00,01,01,AA,
46733420,000001DC,false,Rx,0,8,6E,04,0F,FD,0C,C4,C0,36,
46736317,0000011A,false,Rx,0,8,01,40,00,AA,80,00,03,CE,
46738319,000001D4,false,Rx,0,8,F7,07,00,00,47,46,30,1C,
46738591,000001F2,false,Rx,0,8,10,64,00,00,00,1E,01,0D,
46738863,00000284,false,Rx,0,8,00,00,00,00,00,00,6B,F1,
46742949,000001DB,false,Rx,0,8,FF,C0,C0,6A,00,00,01,0B,
46743164,000001DA,false,Rx,0,8,C1,64,18,00,00,01,02,A0,
46743445,000001DC,false,Rx,0,8,6E,04,0F,FD,01,08,D1,D6,
46745624,0000011A,false,Rx,0,8,01,40,00,AA,C0,00,00,03,
46748595,000001D4,false,Rx,0,8,F7,07,00,00,87,46,30,D0,
46748808,000001F2,false,Rx,0,8,10,64,00,00,00,1E,02,0E,
46749021,0000050C,false,Rx,0,6,00,00,00,03,B2,9A,00,00,
46752932,000001DB,false,Rx,0,8,FF,A0,C0,6A,00,00,02,F2,
46753207,000001DA,false,Rx,0,8,C1,64,18,00,00,01,03,25,
46753430,000001DC,false,Rx,0,8,6E,04,0F,FD,04,D8,C6,DD,
46756335,0000011A,false,Rx,0,8,01,40,00,55,00,00,01,15,
46758807,000001D4,false,Rx,0,8,F7,07,00,00,C7,46,30,17,
46759020,000001F2,false,Rx,0,8,10,64,00,00,00,1E,03,0F,
46759295,00000284,false,Rx,0,8,00,00,00,00,00,00,6C,F2,
46762957,000001DB,false,Rx,0,8,FF,A0,C0,6A,00,00,03,77,
46763172,000001DA,false,Rx,0,8,C1,64,18,00,00,01,00,2F,
46763393,000001DC,false,Rx,0,8,6E,04,0F,FD,08,C0,C7,92,
46766288,0000011A,false,Rx,0,8,01,40,00,55,40,00,02,D8,
46774200,000001D4,false,Rx,0,8,F7,07,00,00,07,46,30,DB,
46774272,000001F2,false,Rx,0,8,10,64,00,00,00,1E,00,0C,
46774335,00000284,false,Rx,0,8,00,00,00,00,00,00,6D,F3,
46774399,0000050A,false,Rx,0,6,85,62,A0,1D,80,20,00,00,
46774462,000001DB,false,Rx,0,8,FF,C0,C0,6A,00,00,00,8E,
46774525,000001DA,false,Rx,0,8,C1,64,18,00,00,01,01,AA,
46774588,000001DC,false,Rx,0,8,6E,04,0F,FD,0C,C4,C0,36,
46776295,0000011A,false,Rx,0,8,01,40,00,AA,80,00,03,CE,
46779240,000001D4,false,Rx,0,8,F7,07,00,00,47,46,30,1C,
46779520,000001F2,false,Rx,0,8,10,64,00,00,00,1E,01,0D,
46783009,000001DA,false,Rx,0,8,C1,64,18,00,00,01,02,A0,
46783224,000001DB,false,Rx,0,8,FF,C0,C0,6A,00,00,01,0B,
46783505,000001DC,false,Rx,0,8,6E,04,0F,FD,01,08,D1,D6,
46783718,0000055A,false,Rx,0,8,00,44,41,00,5F,43,5B,48,
46783931,0000055B,false,Rx,0,8,AB,00,55,00,FF,C0,12,73,
46785523,0000011A,false,Rx,0,8,01,40,00,AA,C0,00,00,03,
46789553,000001D4,false,Rx,0,8,F7,07,00,00,87,46,30,D0,
46789826,000001F2,false,Rx,0,8,10,64,00,00,00,1E,02,0E,
