Time Stamp,ID,Extended,Dir,Bus,LEN,D1,D2,D3,D4,D5,D6,D7,D8
4567697,00000603,false,Rx,0,1,00,00,00,00,00,00,00,00,
4568804,0000068C,false,Rx,0,1,00,00,00,00,00,00,00,00,
4608492,000001D4,false,Rx,0,8,A0,6D,00,00,42,00,50,FB,
4608705,000001F2,false,Rx,0,8,08,64,00,00,00,01,01,06,
4608978,000005A9,false,Rx,0,8,FF,FF,FC,FF,FF,F0,00,00,
4614858,0000054A,false,Rx,0,8,9E,00,70,02,00,00,00,3D,
4615907,0000054B,false,Rx,0,8,00,08,80,00,04,00,00,00,
4616897,0000054C,false,Rx,0,8,FF,FF,00,00,00,F8,FF,00,
4617887,0000054F,false,Rx,0,8,14,00,00,00,07,40,00,1E,
4618818,000001D4,false,Rx,0,8,9C,6D,00,00,82,00,50,83,
4619036,000001F2,false,Rx,0,8,08,64,00,00,00,01,02,07,
4619256,0000050A,false,Rx,0,6,04,00,00,1D,00,20,00,00,
4619351,0000056E,false,Rx,0,1,46,00,00,00,00,00,00,00,
4628975,000001D4,false,Rx,0,8,9F,6D,00,00,C2,00,50,4D,
4629191,000001F2,false,Rx,0,8,08,64,00,00,00,01,03,08,
4639180,000001D4,false,Rx,0,8,9F,6D,00,00,02,00,50,81,
4639460,000001F2,false,Rx,0,8,08,64,00,00,00,01,00,05,
4639613,0000050B,false,Rx,0,6,00,00,00,C0,00,60,00,00,
4646682,0000011A,false,Rx,0,8,00,40,80,55,00,00,01,0D,
4649474,000001D4,false,Rx,0,8,9F,6D,00,00,42,06,50,3E,
4649746,000001F2,false,Rx,0,8,08,64,00,00,00,01,01,06,
4656661,0000011A,false,Rx,0,8,00,40,80,55,40,00,02,C0,
4659738,000001D4,false,Rx,0,8,9F,6D,00,00,82,06,70,B1,
4659951,000001F2,false,Rx,0,8,08,64,00,00,00,02,02,08,
4666733,0000011A,false,Rx,0,8,00,40,80,AA,80,00,03,D6,
4669935,000001D4,false,Rx,0,8,9F,6D,00,00,C2,06,70,76,
4670211,000001F2,false,Rx,0,8,08,64,00,00,00,02,03,09,
4676273,0000011A,false,Rx,0,8,00,40,80,AA,C0,00,00,1B,
4680240,000001D4,false,Rx,0,8,9F,6D,00,00,02,06,70,BA,
4680453,000001F2,false,Rx,0,8,08,64,00,00,00,02,00,06,
4680666,000005B9,false,Rx,0,5,07,FF,07,FF,28,00,00,00,
4686731,0000011A,false,Rx,0,8,00,40,80,55,00,00,01,0D,
4690464,000001D4,false,Rx,0,8,9F,6D,00,00,42,06,70,7D,
4690735,000001F2,false,Rx,0,8,08,64,00,00,00,02,01,07,
4696633,0000011A,false,Rx,0,8,01,40,80,55,40,00,02,C7,
4700734,000001D4,false,Rx,0,8,9F,6D,00,00,82,06,70,B1,
4700947,000001F2,false,Rx,0,8,08,64,00,00,00,02,02,08,
4701162,0000050C,false,Rx,0,6,00,00,00,01,5D,5F,00,00,
4701620,000001DB,false,Rx,0,8,7F,E0,FF,C6,00,00,00,DE,
4701833,000001DC,false,Rx,0,8,FF,FF,FF,FF,1F,FF,FC,6B,
4707029,0000011A,false,Rx,0,8,01,40,80,AA,80,00,03,D1,
4707959,0000054A,false,Rx,0,8,10,00,70,02,00,00,00,3D,
4708948,0000054B,false,Rx,0,8,00,08,80,00,04,00,00,00,
4709938,0000054C,false,Rx,0,8,FF,FF,00,00,00,F8,FF,00,
4710929,0000054F,false,Rx,0,8,14,00,00,00,07,80,00,1E,
4711204,000001D4,false,Rx,0,8,9F,6D,00,00,C2,06,70,76,
4711425,000001F2,false,Rx,0,8,08,64,00,00,00,04,03,0B,
4711698,000001DB,false,Rx,0,8,00,20,FF,C6,00,00,01,C0,
4711912,000001DC,false,Rx,0,8,FF,FF,FF,FF,01,08,D1,CC,
4716365,0000011A,false,Rx,0,8,01,40,80,AA,C0,00,00,1C,
4718836,0000056E,false,Rx,0,1,46,00,00,00,00,00,00,00,
4721258,000001D4,false,Rx,0,8,9F,6D,00,00,02,06,70,BA,
4721530,000001F2,false,Rx,0,8,08,64,00,00,00,04,00,08,
4721744,000001DB,false,Rx,0,8,00,00,FF,C6,00,00,02,9B,
4721957,000001DC,false,Rx,0,8,FF,FF,FF,FF,04,D8,C6,C7,
4722171,0000050A,false,Rx,0,6,04,20,00,1D,00,20,00,00,
4727038,0000011A,false,Rx,0,8,01,40,80,55,00,00,01,0A,
4727312,00000380,false,Rx,0,8,00,04,10,21,00,00,00,03,
4731457,000001D4,false,Rx,0,8,9F,6D,00,00,42,06,70,7D,
4731730,000001DB,false,Rx,0,8,00,00,FF,C6,00,00,03,1E,
4731943,000001DC,false,Rx,0,8,FF,FF,FF,FF,08,C0,C7,88,
4732218,000001F2,false,Rx,0,8,08,64,00,00,00,04,01,09,
4736669,0000011A,false,Rx,0,8,01,40,80,55,40,00,02,C7,
4737061,00000380,false,Rx,0,8,02,04,10,21,00,00,00,16,
4741629,000001DB,false,Rx,0,8,00,00,C0,86,00,00,00,1F,
4741842,000001D4,false,Rx,0,8,9F,6D,00,00,82,06,70,B1,
4742115,000001DC,false,Rx,0,8,FF,FF,FF,FF,0C,C4,C0,2C,
4742337,000001F2,false,Rx,0,8,08,64,00,00,00,04,02,0A,
4742551,0000050B,false,Rx,0,6,00,00,00,C0,00,60,00,00,
4747057,0000011A,false,Rx,0,8,01,40,80,AA,80,00,03,D1,
4751622,000001DB,false,Rx,0,8,00,00,C0,86,00,00,01,9A,
4751836,000001DC,false,Rx,0,8,FF,FF,FF,FF,01,08,D1,CC,
4752050,000001D4,false,Rx,0,8,9F,6D,00,00,C2,06,70,76,
4752331,000001F2,false,Rx,0,8,08,64,00,00,00,04,03,0B,
4760482,0000011A,false,Rx,0,8,01,40,80,AA,C0,00,00,1C,
4761589,000001DB,false,Rx,0,8,00,20,C0,86,00,00,02,C1,
4761861,000001DC,false,Rx,0,8,FF,FF,FF,FF,04,D8,C6,C7,
4762193,000001D4,false,Rx,0,8,A0,6D,00,00,02,06,70,07,
4762415,000001F2,false,Rx,0,8,08,64,00,00,00,04,00,08,
4766995,0000011A,false,Rx,0,8,01,40,80,55,00,00,01,0A,
4771581,000001DB,false,Rx,0,8,00,20,C0,86,00,00,03,44,
4771853,000001DC,false,Rx,0,8,FF,FF,FF,FF,08,C0,C7,88,
4772433,000001D4,false,Rx,0,8,A0,6D,00,00,42,06,70,C0,
4772705,000001F2,false,Rx,0,8,08,64,00,00,00,04,01,09,
4776616,0000011A,false,Rx,0,8,01,40,80,55,40,00,02,C7,
4781601,000001DB,false,Rx,0,8,00,20,C0,86,00,00,00,4E,
4781814,000001DC,false,Rx,0,8,FF,FF,FF,FF,0C,C4,C0,2C,
4782688,000001D4,false,Rx,0,8,A0,6D,00,00,82,06,70,0C,
4782902,000001F2,false,Rx,0,8,08,64,00,00,00,04,02,0A,
4787000,0000011A,false,Rx,0,8,01,40,80,AA,80,00,03,D1,
4791805,000001DB,false,Rx,0,8,00,20,C0,86,00,00,01,CB,
4792017,000001DC,false,Rx,0,8,FF,FF,FF,FF,01,08,D1,CC,
4792240,0000055B,false,Rx,0,8,AB,00,AA,00,FF,C0,10,BB,
4792924,000001D4,false,Rx,0,8,A0,6D,00,00,C2,06,70,CB,
4793200,000001F2,false,Rx,0,8,08,64,00,00,00,04,03,0B,
4796286,0000011A,false,Rx,0,8,01,40,80,AA,C0,00,00,1C,
4801569,000001DB,false,Rx,0,8,00,20,C0,A6,00,00,02,8E,
4801842,000001DC,false,Rx,0,8,FF,FF,FF,FF,04,D8,C6,C7,
4803188,000001D4,false,Rx,0,8,A0,6D,00,00,02,06,70,07,
4803469,000001F2,false,Rx,0,8,08,64,00,00,00,04,00,08,
4803682,0000050C,false,Rx,0,6,00,00,00,02,5D,63,00,00,
4806995,0000011A,false,Rx,0,8,01,40,80,55,00,00,01,0A,
4808046,0000054A,false,Rx,0,8,9E,00,70,02,00,00,00,3D,
4809038,0000054B,false,Rx,0,8,00,08,80,00,04,00,00,00,
4810026,0000054C,false,Rx,0,8,FF,FF,00,00,00,F8,FF,00,
4815455,0000054F,false,Rx,0,8,43,00,00,00,07,C0,08,33,
4815519,000001DB,false,Rx,0,8,00,20,C0,A6,00,00,03,0B,
4815582,000001DC,false,Rx,0,8,FF,FF,FF,FF,08,C0,C7,88,
4815645,000001D4,false,Rx,0,8,A0,6D,00,00,42,06,70,C0,
4815709,000001F2,false,Rx,0,8,08,64,00,00,00,04,01,09,
4816581,0000011A,false,Rx,0,8,01,40,80,55,40,00,02,C7,
4817152,00000380,false,Rx,0,8,02,04,10,21,00,00,00,27,
4817374,000005BF,false,Rx,0,8,00,00,00,00,10,00,00,00,
4818953,0000056E,false,Rx,0,1,46,00,00,00,00,00,00,00,
4821616,000001DB,false,Rx,0,8,00,20,C0,A6,00,00,00,01,
4821829,000001DC,false,Rx,0,8,FF,FF,FF,FF,0C,C4,C0,2C,
4823713,000001D4,false,Rx,0,8,A0,6D,00,00,82,06,70,0C,
4823927,000001F2,false,Rx,0,8,08,64,00,00,00,04,02,0A,
4824201,00000284,false,Rx,0,8,00,00,00,00,00,00,01,87,
4824423,0000050A,false,Rx,0,6,04,40,00,1D,00,20,00,00,
4827013,0000011A,false,Rx,0,8,01,40,80,AA,80,00,03,D1,
4831582,000001DB,false,Rx,0,8,00,20,C0,A6,00,00,01,84,
4831855,000001DC,false,Rx,0,8,FF,FF,FF,FF,01,08,D1,CC,
4833916,000001D4,false,Rx,0,8,A0,6D,00,00,C2,06,70,CB,
4834132,000001F2,false,Rx,0,8,08,64,00,00,00,04,03,0B,
4836194,0000011A,false,Rx,0,8,01,40,80,AA,C0,00,00,1C,
4841600,000001DB,false,Rx,0,8,00,20,C0,A6,00,00,02,8E,
4841813,000001DC,false,Rx,0,8,FF,FF,FF,FF,04,D8,C6,C7,
4844173,000001D4,false,Rx,0,8,A0,6D,00,00,02,06,70,07,
4844454,000001F2,false,Rx,0,8,08,64,00,00,00,04,00,08,
4844668,00000284,false,Rx,0,8,00,00,00,00,00,00,02,88,
4844881,0000050B,false,Rx,0,6,00,00,00,C0,00,60,00,00,
4847001,0000011A,false,Rx,0,8,01,40,80,55,00,00,01,0A,
4851569,000001DB,false,Rx,0,8,00,00,C0,A6,00,00,03,5A,
4851841,000001DC,false,Rx,0,8,FF,FF,FF,FF,08,C0,C7,88,
4854385,000001D4,false,Rx,0,8,A0,6D,00,00,42,06,70,C0,
4854658,000001F2,false,Rx,0,8,08,64,00,00,00,04,01,09,
4854930,00000284,false,Rx,0,8,00,00,00,00,00,00,03,89,
4856641,0000011A,false,Rx,0,8,01,40,80,55,40,00,02,C7,
4861576,000001DB,false,Rx,0,8,00,00,C0,A6,00,00,00,50,
4861848,000001DC,false,Rx,0,8,FF,FF,FF,FF,0C,C4,C0,2C,
4864628,000001D4,false,Rx,0,8,A0,6D,00,00,82,06,70,0C,
4864900,000001F2,false,Rx,0,8,08,64,00,00,00,04,02,0A,
4871717,0000011A,false,Rx,0,8,01,40,80,AA,80,00,03,D1,
4871813,000001DB,false,Rx,0,8,00,00,C0,A6,00,00,01,D5,
4871877,000001DC,false,Rx,0,8,FF,FF,FF,FF,01,08,D1,CC,
4874892,000001D4,false,Rx,0,8,A0,6D,00,00,C2,06,70,CB,
4875106,000001F2,false,Rx,0,8,08,64,00,00,00,04,03,0B,
4876279,0000011A,false,Rx,0,8,01,40,80,AA,C0,00,00,1C,
4881613,000001DB,false,Rx,0,8,00,00,C0,A6,00,00,02,DF,
4881827,000001DC,false,Rx,0,8,FF,FF,FF,FF,04,D8,C6,C7,
4885097,000001D4,false,Rx,0,8,A0,6D,00,00,02,06,70,07,
4885379,000001F2,false,Rx,0,8,08,64,00,00,00,04,00,08,
4885592,00000284,false,Rx,0,8,00,00,00,00,00,00,04,8A,
4887058,0000011A,false,Rx,0,8,01,40,80,55,00,00,01,0A,
4891746,000001DB,false,Rx,0,8,00,00,C0,A6,00,00,03,5A,
4892019,000001DC,false,Rx,0,8,FF,FF,FF,FF,08,C0,C7,88,
4892242,0000055B,false,Rx,0,8,AB,00,55,00,FF,C0,11,79,
4895432,000001D4,false,Rx,0,8,A0,6D,00,00,42,06,70,C0,
4895645,000001F2,false,Rx,0,8,08,64,00,00,00,04,01,09,
4896634,0000011A,false,Rx,0,8,01,40,80,55,40,00,02,C7,
4898815,000001DA,false,Rx,0,8,FF,00,00,00,7F,FE,01,97,
4901569,000001DB,false,Rx,0,8,00,00,C0,A6,00,00,00,50,
4901842,000001DC,false,Rx,0,8,FF,FF,FF,FF,0C,C4,C0,2C,
4905693,000001D4,false,Rx,0,8,A0,6D,00,00,82,06,70,0C,
4905966,000001F2,false,Rx,0,8,08,64,00,00,00,04,02,0A,
4906182,00000284,false,Rx,0,8,00,00,00,00,00,00,05,8B,
4906404,0000050C,false,Rx,0,6,00,00,00,03,B2,9A,00,00,
4907032,0000011A,false,Rx,0,8,01,40,80,AA,80,00,03,D1,
4908139,0000054A,false,Rx,0,8,10,00,70,02,00,00,00,3D,
4908833,000001DA,false,Rx,0,8,FF,00,00,00,7F,FE,02,9D,
4909107,0000054B,false,Rx,0,8,00,08,80,00,04,00,00,00,
4910096,0000054C,false,Rx,0,8,FF,FF,00,00,00,F8,FF,00,
4911089,0000054F,false,Rx,0,8,43,00,00,00,07,00,08,33,
4911605,000001DB,false,Rx,0,8,00,00,C0,A6,00,00,01,D5,
4911819,000001DC,false,Rx,0,8,FF,FF,FF,FF,01,08,D1,CC,
4915962,000001D4,false,Rx,0,8,A0,6D,00,00,C2,06,70,CB,
4916243,0000011A,false,Rx,0,8,01,40,80,AA,C0,00,00,1C,
4916456,000001F2,false,Rx,0,8,08,64,00,00,00,05,03,0C,
4916729,00000284,false,Rx,0,8,00,00,00,00,00,00,06,8C,
4917299,00000380,false,Rx,0,8,02,04,10,21,00,00,00,38,
4917512,000005BF,false,Rx,0,8,00,00,00,00,18,00,00,19,
4918856,000001DA,false,Rx,0,8,01,00,00,00,7F,FE,03,6D,
4919009,0000056E,false,Rx,0,1,46,00,00,00,00,00,00,00,
4921612,000001DB,false,Rx,0,8,00,00,C0,A6,00,00,02,DF,
4928768,000001DC,false,Rx,0,8,FF,FF,FF,FF,04,D8,C6,C7,
4928865,000001D4,false,Rx,0,8,A0,6D,00,00,02,06,70,07,
4928928,000001F2,false,Rx,0,8,08,64,00,00,00,07,00,0B,
4928991,0000050A,false,Rx,0,6,04,60,00,1D,00,20,00,00,
4929057,0000011A,false,Rx,0,8,01,40,80,55,00,00,01,0A,
4929120,000001DA,false,Rx,0,8,01,00,00,00,7F,FE,00,67,
4931601,000001DB,false,Rx,0,8,00,00,C0,A6,00,00,03,5A,
4931814,000001DC,false,Rx,0,8,FF,FF,FF,FF,08,C0,C7,88,
4936385,000001D4,false,Rx,0,8,A0,6D,00,00,42,06,70,C0,
4936658,0000011A,false,Rx,0,8,01,40,80,55,40,00,02,C7,
4936872,000001F2,false,Rx,0,8,08,64,00,00,00,07,01,0C,
4937149,00000284,false,Rx,0,8,00,00,00,00,00,00,07,8D,
4938914,000001DA,false,Rx,0,8,01,00,00,00,7F,FF,01,75,
4941575,000001DB,false,Rx,0,8,00,00,C0,A6,00,00,00,50,
4941848,000001DC,false,Rx,0,8,FF,FF,FF,FF,0C,C4,C0,2C,
4946654,000001D4,false,Rx,0,8,A0,6D,00,00,82,06,70,0C,
4946867,000001F2,false,Rx,0,8,08,64,00,00,00,07,02,0D,
4947082,0000011A,false,Rx,0,8,01,40,80,AA,80,00,03,D1,
4947303,0000050B,false,Rx,0,6,00,00,00,C0,00,60,00,00,
4948881,000001DA,false,Rx,0,8,01,00,00,00,7F,FF,02,7F,
4951601,000001DB,false,Rx,0,8,00,00,C0,A6,00,00,01,D5,
4951814,000001DC,false,Rx,0,8,FF,FF,FF,FF,01,08,D1,CC,
4956202,0000011A,false,Rx,0,8,01,40,80,AA,C0,00,00,1C,
4956895,000001D4,false,Rx,0,8,A0,6D,00,00,C2,06,70,CB,
4957169,000001F2,false,Rx,0,8,08,64,00,00,00,07,03,0E,
4957390,00000284,false,Rx,0,8,00,00,00,00,00,00,08,8E,
4958911,000001DA,false,Rx,0,8,01,00,00,00,7F,FF,03,FA,
4961575,000001DB,false,Rx,0,8,00,00,C0,AE,00,00,02,6F,
4961848,000001DC,false,Rx,0,8,FF,FF,FF,FF,04,D8,C6,C7,
4966889,0000011A,false,Rx,0,8,01,40,80,55,00,00,01,0A,
4967163,000001D4,false,Rx,0,8,A0,6D,00,00,02,06,70,07,
4967383,000001F2,false,Rx,0,8,08,64,00,00,00,07,00,0B,
4968906,000001DA,false,Rx,0,8,01,00,00,00,7F,FF,00,F0,
4971582,000001DB,false,Rx,0,8,00,00,C0,AE,00,00,03,EA,
4971795,000001DC,false,Rx,0,8,FF,FF,FF,FF,08,C0,C7,88,
4976600,0000011A,false,Rx,0,8,01,40,80,55,40,00,02,C7,
4977412,000001D4,false,Rx,0,8,A0,6D,00,00,42,06,70,C0,
4977626,000001F2,false,Rx,0,8,08,64,00,00,00,0A,01,0F,
4977899,00000284,false,Rx,0,8,00,00,00,00,00,00,09,8F,
4985289,000001DA,false,Rx,0,8,01,00,00,00,7F,FF,01,75,
4985353,000001DB,false,Rx,0,8,00,00,C0,AE,00,00,00,E0,
4985416,000001DC,false,Rx,0,8,FF,FF,FF,FF,0C,C4,C0,2C,
4986877,0000011A,false,Rx,0,8,01,40,80,AA,80,00,03,D1,
4987572,000001D4,false,Rx,0,8,A0,6D,00,00,82,46,70,91,
4987845,000001F2,false,Rx,0,8,08,64,00,00,00,0D,02,03,
4988893,000001DA,false,Rx,0,8,01,00,00,00,7F,FF,02,7F,
4989108,0000055A,false,Rx,0,8,00,44,41,00,5F,42,3A,C8,
4991767,000001DB,false,Rx,0,8,00,00,C0,AE,00,00,01,65,
4991980,000001DC,false,Rx,0,8,FF,FF,FF,FF,01,08,D1,CC,
4992262,0000055B,false,Rx,0,8,AB,00,55,00,FF,C0,12,73,
4996108,0000011A,false,Rx,0,8,01,40,80,AA,C0,00,00,1C,
4997930,000001D4,false,Rx,0,8,A0,6D,00,00,C2,46,70,56,
4998207,000001F2,false,Rx,0,8,08,64,00,00,00,0D,03,04,
4998429,00000284,false,Rx,0,8,00,00,00,00,00,00,0A,90,
4998877,000001DA,false,Rx,0,8,01,00,00,00,7F,FF,03,FA,
5001597,000001DB,false,Rx,0,8,00,00,C0,AE,00,00,02,6F,
5001810,000001DC,false,Rx,0,8,FF,FF,FF,FF,04,D8,C6,C7,
5006883,0000011A,false,Rx,0,8,01,40,80,55,00,00,01,0A,
5008110,000001D4,false,Rx,0,8,A0,6D,00,00,02,46,70,9A,
5008331,000001F2,false,Rx,0,8,08,64,00,00,00,0D,00,01,
5008545,0000050C,false,Rx,0,6,00,00,00,00,B2,A6,00,00,
5008758,0000054A,false,Rx,0,8,9E,00,70,02,00,00,00,3D,
5009032,000001DA,false,Rx,0,8,01,00,00,00,7F,FF,00,F0,
5010200,0000054B,false,Rx,0,8,00,08,80,00,04,00,00,00,
5011191,0000054C,false,Rx,0,8,FF,FF,00,00,00,F8,FF,00,
5011590,000001DB,false,Rx,0,8,00,00,C0,AE,00,00,03,EA,
5011802,000001DC,false,Rx,0,8,FF,FF,FF,FF,08,C0,C7,88,
5012194,0000054F,false,Rx,0,8,43,00,00,00,07,40,08,33,
5016588,0000011A,false,Rx,0,8,01,40,80,55,40,00,02,C7,
5017402,00000380,false,Rx,0,8,02,04,10,21,00,00,00,05,
5017616,000005BF,false,Rx,0,8,00,00,00,00,18,00,00,2A,
5018432,000001D4,false,Rx,0,8,A0,6D,00,00,42,46,70,5D,
5018646,000001F2,false,Rx,0,8,08,64,00,00,00,0D,01,02,
5018919,00000284,false,Rx,0,8,00,00,00,00,00,00,0B,91,
5019135,000001DA,false,Rx,0,8,01,00,00,00,7F,FF,01,75,
5019238,0000056E,false,Rx,0,1,46,00,00,00,00,00,00,00,
5021593,000001DB,false,Rx,0,8,00,00,C0,AE,00,00,00,E0,
5021823,000001DC,false,Rx,0,8,FF,FF,FF,FF,0C,C4,C0,2C,
5026870,0000011A,false,Rx,0,8,01,40,80,AA,80,00,03,D1,
5028639,000001D4,false,Rx,0,8,A0,6D,00,00,82,46,70,91,
5028852,000001F2,false,Rx,0,8,08,64,00,00,00,0D,02,03,
5029129,000001DA,false,Rx,0,8,01,00,00,00,7F,FF,02,7F,
5029290,0000050A,false,Rx,0,6,04,00,00,1D,00,20,00,00,
5031588,000001DB,false,Rx,0,8,00,00,C0,AE,00,00,01,65,
5031801,000001DC,false,Rx,0,8,FF,FF,FF,FF,01,08,D1,CC,
5043139,0000011A,false,Rx,0,8,01,40,80,AA,C0,00,00,1C,
5043204,000001D4,false,Rx,0,8,A0,6D,00,00,C2,46,70,56,
5043275,000001DA,false,Rx,0,8,01,00,00,00,7F,FF,03,FA,
5043338,000001F2,false,Rx,0,8,08,64,00,00,00,0D,03,04,
5043401,00000284,false,Rx,0,8,00,00,00,00,00,00,0C,92,
5043465,000001DB,false,Rx,0,8,00,00,C0,AE,00,00,02,6F,
5043528,000001DC,false,Rx,0,8,FF,FF,FF,FF,04,D8,C6,C7,
5046895,0000011A,false,Rx,0,8,01,40,80,55,00,00,01,0A,
5048895,000001DA,false,Rx,0,8,01,00,00,00,7F,FF,00,F0,
5049110,000001D4,false,Rx,0,8,A0,6D,00,00,02,46,70,9A,
5049331,000001F2,false,Rx,0,8,08,64,00,00,00,0D,00,01,
5049544,0000050B,false,Rx,0,6,00,00,00,C0,00,60,00,00,
5051576,000001DB,false,Rx,0,8,00,00,C0,AE,00,00,03,EA,
5051789,000001DC,false,Rx,0,8,FF,FF,FF,FF,08,C0,C7,88,
5056535,0000011A,false,Rx,0,8,01,40,80,55,40,00,02,C7,
5058890,000001DA,false,Rx,0,8,01,00,00,00,7F,FF,01,75,
5059350,000001D4,false,Rx,0,8,A0,6D,00,00,42,46,70,5D,
5059564,000001F2,false,Rx,0,8,08,64,00,00,00,0D,01,02,
5059837,00000284,false,Rx,0,8,00,00,00,00,00,00,0D,93,
5061557,000001DB,false,Rx,0,8,00,00,C0,AE,00,00,00,E0,
5061830,000001DC,false,Rx,0,8,FF,FF,FF,FF,0C,C4,C0,2C,
5066870,0000011A,false,Rx,0,8,01,40,80,AA,80,00,03,D1,
5068875,000001DA,false,Rx,0,8,01,00,00,00,7F,FF,02,7F,
5069576,000001D4,false,Rx,0,8,A0,6D,00,00,82,46,70,91,
5069789,000001F2,false,Rx,0,8,08,64,00,00,00,0D,02,03,
5071557,000001DB,false,Rx,0,8,00,00,C0,AE,00,00,01,65,
5071830,000001DC,false,Rx,0,8,FF,FF,FF,FF,01,08,D1,CC,
5076096,0000011A,false,Rx,0,8,01,40,80,AA,C0,00,00,1C,
5078877,000001DA,false,Rx,0,8,01,00,00,00,7F,FF,03,FA,
5079809,000001D4,false,Rx,0,8,A0,6D,00,00,C2,46,70,56,
5080083,000001F2,false,Rx,0,8,08,64,00,00,00,0D,03,04,
5080305,00000284,false,Rx,0,8,00,00,00,00,00,00,0E,94,
5081589,000001DB,false,Rx,0,8,00,00,C0,AE,00,00,02,6F,
5081803,000001DC,false,Rx,0,8,FF,FF,FF,FF,04,D8,C6,C7,
5086858,0000011A,false,Rx,0,8,01,40,80,55,00,00,01,0A,
5088865,000001DA,false,Rx,0,8,01,00,00,00,7F,FF,00,F0,
5089138,0000055A,false,Rx,0,8,00,44,41,00,5F,42,3A,C8,
5090006,000001D4,false,Rx,0,8,A0,6D,00,00,02,46,70,9A,
5090281,000001F2,false,Rx,0,8,08,64,00,00,00,0D,00,01,
5091754,000001DB,false,Rx,0,8,00,00,C0,AE,00,00,03,EA,
5091967,000001DC,false,Rx,0,8,FF,FF,FF,FF,08,C0,C7,88,
5092248,0000055B,false,Rx,0,8,AB,00,55,00,FF,C0,13,F6,
5100374,0000011A,false,Rx,0,8,01,40,80,55,40,00,02,C7,
5100439,000001DA,false,Rx,0,8,01,00,00,00,7F,FF,01,75,
5100502,000001D4,false,Rx,0,8,A0,6D,00,00,42,46,70,5D,
5100598,000001F2,false,Rx,0,8,08,64,00,00,00,0D,01,02,
5100871,00000284,false,Rx,0,8,00,00,00,00,00,00,0F,95,
5101569,000001DB,false,Rx,0,8,00,00,C0,AE,00,00,00,E0,
5101841,000001DC,false,Rx,0,8,FF,FF,FF,FF,0C,C4,C0,2C,
5106860,0000011A,false,Rx,0,8,01,40,80,AA,80,00,03,D1,
5108274,0000054A,false,Rx,0,8,10,00,70,06,22,00,00,3D,
5108900,000001DA,false,Rx,0,8,01,00,00,00,7F,FF,02,7F,
5109240,0000054B,false,Rx,0,8,00,48,88,12,0C,00,00,00,
5110288,0000054C,false,Rx,0,8,8D,66,40,00,00,40,7C,00,
5110620,000001D4,false,Rx,0,8,A0,6D,00,00,82,46,70,91,
5110833,000001F2,false,Rx,0,8,08,64,00,00,00,0D,02,03,
5111049,0000050C,false,Rx,0,6,00,00,00,01,B2,31,00,00,
5111264,0000054F,false,Rx,0,8,43,00,00,00,07,80,88,33,
5111596,000001DB,false,Rx,0,8,00,00,C0,AE,00,00,01,65,
5111809,000001DC,false,Rx,0,8,FF,FF,FF,FF,01,08,D1,CC,
5116133,0000011A,false,Rx,0,8,01,40,80,AA,C0,00,00,1C,
5117425,00000380,false,Rx,0,8,02,04,10,21,00,00,00,16,
5117697,000005BF,false,Rx,0,8,00,00,00,00,18,00,00,3B,
5118864,000001DA,false,Rx,0,8,01,00,00,00,7F,FF,03,FA,
5118959,0000056E,false,Rx,0,1,46,00,00,00,00,00,00,00,
5120845,000001D4,false,Rx,0,8,A0,6D,00,00,C2,46,70,56,
5121119,000001F2,false,Rx,0,8,08,64,00,00,00,0D,03,04,
5121341,00000284,false,Rx,0,8,00,00,00,00,00,00,10,96,
5121613,000001DB,false,Rx,0,8,00,00,C0,AE,00,00,02,6F,
5121827,000001DC,false,Rx,0,8,FF,FF,FF,FF,04,D8,C6,C7,
5122103,000005A9,false,Rx,0,8,FF,FF,FC,FF,FF,F0,00,00,
5126845,0000011A,false,Rx,0,8,01,40,80,55,00,00,01,0A,
5128848,000001DA,false,Rx,0,8,01,00,00,00,7F,FF,00,F0,
5131029,000001D4,false,Rx,0,8,A0,6D,00,00,02,46,70,9A,
5131303,000001F2,false,Rx,0,8,08,64,00,00,00,0D,00,01,
5131517,0000050A,false,Rx,0,6,04,20,00,1D,00,20,00,00,
5131730,000001DB,false,Rx,0,8,00,00,C0,AE,00,00,03,EA,
5131943,000001DC,false,Rx,0,8,FF,FF,FF,FF,08,C0,C7,88,
5136511,0000011A,false,Rx,0,8,01,40,80,55,40,00,02,C7,
5138871,000001DA,false,Rx,0,8,01,00,00,00,7F,FF,01,75,
5141298,000001D4,false,Rx,0,8,A0,6D,00,00,42,46,70,5D,
5141512,000001F2,false,Rx,0,8,08,64,00,00,00,0E,01,03,
5141725,000001DB,false,Rx,0,8,00,00,C0,6E,00,00,00,C7,
5141998,000001DC,false,Rx,0,8,FF,FF,FF,FF,0C,C4,C0,2C,
5142213,00000284,false,Rx,0,8,00,00,00,00,00,00,11,97,
5146838,0000011A,false,Rx,0,8,01,40,80,AA,80,00,03,D1,
5148901,000001DA,false,Rx,0,8,01,00,00,00,7F,FF,02,7F,
5157955,000001D4,false,Rx,0,8,A0,6D,00,00,82,46,70,91,
5158019,000001DB,false,Rx,0,8,00,00,C0,6E,00,00,01,42,
5158084,000001DC,false,Rx,0,8,FF,FF,FF,FF,01,08,D1,CC,
5158147,000001F2,false,Rx,0,8,08,64,00,00,00,0E,02,04,
5158210,0000050B,false,Rx,0,6,00,00,00,C0,00,60,00,00,
5158281,0000011A,false,Rx,0,8,01,40,80,AA,C0,00,00,1C,
5158848,000001DA,false,Rx,0,8,01,00,00,00,00,01,03,9A,
5161570,000001DB,false,Rx,0,8,FF,E0,C0,6E,00,00,02,08,
5161784,000001D4,false,Rx,0,8,A0,6D,00,00,C2,46,70,56,
5162057,000001DC,false,Rx,0,8,FF,FF,FF,FF,04,D8,C6,C7,
5162278,000001F2,false,Rx,0,8,08,64,00,00,00,0E,03,05,
5162549,00000284,false,Rx,0,8,00,00,00,00,00,00,12,98,
5166818,0000011A,false,Rx,0,8,01,40,80,55,00,00,01,0A,
5168880,000001DA,false,Rx,0,8,01,00,00,00,00,01,00,90,
5171551,000001DB,false,Rx,0,8,FF,E0,C0,6E,00,00,03,8D,
5171823,000001DC,false,Rx,0,8,FF,FF,FF,FF,08,C0,C7,88,
5172038,000001D4,false,Rx,0,8,F7,07,00,00,02,46,70,40,
5172312,000001F2,false,Rx,0,8,08,64,00,00,00,0F,00,03,
5176517,0000011A,false,Rx,0,8,01,40,80,55,40,00,02,C7,
5178875,000001DA,false,Rx,0,8,01,00,00,00,00,01,01,15,
5181535,000001DB,false,Rx,0,8,FF,E0,C0,6E,00,00,00,87,
5181808,000001DC,false,Rx,0,8,FF,FF,FF,FF,0C,C4,C0,2C,
5182267,000001D4,false,Rx,0,8,F7,07,00,00,42,46,70,87,
5182481,000001F2,false,Rx,0,8,08,64,00,00,00,0F,01,04,
5182753,00000284,false,Rx,0,8,00,00,00,00,00,00,13,99,
5186799,0000011A,false,Rx,0,8,01,40,80,AA,80,00,03,D1,
5188864,000001DA,false,Rx,0,8,01,00,00,00,00,01,02,1F,
5189078,0000055A,false,Rx,0,8,00,44,41,00,5F,42,3A,A8,
5191740,000001DB,false,Rx,0,8,FF,E0,C0,6E,00,00,01,02,
5191953,000001DC,false,Rx,0,8,FF,FF,FF,FF,01,08,D1,CC,
5192236,0000055B,false,Rx,0,8,AB,00,55,00,FF,C0,10,FC,
5192508,000001D4,false,Rx,0,8,F7,07,00,00,82,46,70,4B,
5192722,000001F2,false,Rx,0,8,08,64,00,00,00,0F,02,05,
5192935,000005B9,false,Rx,0,5,07,FF,07,FF,28,00,00,00,
5196074,0000011A,false,Rx,0,8,01,40,80,AA,C0,00,00,1C,
5198851,000001DA,false,Rx,0,8,01,00,00,00,00,01,03,9A,
5201870,000001DB,false,Rx,0,8,FF,E0,C0,6E,00,00,02,08,
5202146,000001DC,false,Rx,0,8,FF,FF,FF,FF,04,D8,C6,C7,
5202368,000005BC,false,Rx,0,8,FF,C3,29,39,90,05,20,78,
5202582,000005C0,false,Rx,0,8,40,50,74,00,66,00,00,00,
5202854,000001D4,false,Rx,0,8,F7,07,00,00,C2,46,70,8C,
5203072,000001F2,false,Rx,0,8,08,64,00,00,00,0F,03,06,
5203352,00000284,false,Rx,0,8,00,00,00,00,00,00,14,9A,
5206779,0000011A,false,Rx,0,8,01,40,80,55,00,00,01,0A,
5215471,000001DA,false,Rx,0,8,01,00,00,00,00,01,00,90,
5215536,0000054A,false,Rx,0,8,9E,00,70,06,22,00,00,3D,
5215599,0000054B,false,Rx,0,8,00,48,88,12,0C,00,00,00,
5215662,0000054C,false,Rx,0,8,8E,66,40,00,00,40,7C,00,
5215725,000001DB,false,Rx,0,8,FF,E0,C0,6E,00,00,03,8D,
5215788,000001DC,false,Rx,0,8,FF,FF,FF,FF,08,C0,C7,88,
5215851,0000054F,false,Rx,0,8,43,01,00,00,07,C0,88,33,
5215915,000001D4,false,Rx,0,8,F7,07,00,00,02,46,70,40,
5215978,000001F2,false,Rx,0,8,08,64,00,00,00,0F,00,03,
5216044,0000050C,false,Rx,0,6,00,00,00,02,B2,0D,00,00,
5216441,0000011A,false,Rx,0,8,01,40,80,55,40,00,02,C7,
5217550,00000380,false,Rx,0,8,02,04,10,21,00,00,00,27,
5217823,000005BF,false,Rx,0,8,00,00,00,00,18,00,00,08,
5218870,000001DA,false,Rx,0,8,01,00,00,00,00,01,01,15,
5219026,0000056E,false,Rx,0,1,46,00,00,00,00,00,00,00,
5221569,000001DB,false,Rx,0,8,FF,E0,C0,6E,00,00,00,87,
5221783,000001DC,false,Rx,0,8,FF,FF,FF,FF,0C,C4,C0,2C,
5223253,000001D4,false,Rx,0,8,F7,07,00,00,42,46,70,87,
5223526,000001F2,false,Rx,0,8,08,64,00,00,00,0F,01,04,
5223740,00000284,false,Rx,0,8,00,00,00,00,00,00,15,9B,
5226816,0000011A,false,Rx,0,8,01,40,80,AA,80,00,03,D1,
5228877,000001DA,false,Rx,0,8,01,00,00,00,00,01,02,1F,
5231537,000001DB,false,Rx,0,8,FF,E0,C0,6E,00,00,01,02,
5231810,000001DC,false,Rx,0,8,FF,FF,FF,FF,01,08,D1,CC,
5233458,000001D4,false,Rx,0,8,F7,07,00,00,82,46,70,4B,
5233671,000001F2,false,Rx,0,8,08,64,00,00,00,0F,02,05,
5233885,0000050A,false,Rx,0,6,04,40,00,1D,00,20,00,00,
5236005,0000011A,false,Rx,0,8,01,40,80,AA,C0,00,00,1C,
5238845,000001DA,false,Rx,0,8,01,00,00,00,00,01,03,9A,
5241568,000001DB,false,Rx,0,8,FF,E0,C0,AE,00,00,02,2F,
5241781,000001DC,false,Rx,0,8,FF,FF,FF,FF,04,D8,C6,C7,
5243726,000001D4,false,Rx,0,8,F7,07,00,00,C2,46,70,8C,
5243940,000001F2,false,Rx,0,8,08,64,00,00,00,0F,03,06,
5244215,00000284,false,Rx,0,8,00,00,00,00,00,00,16,9C,
5246759,0000011A,false,Rx,0,8,01,40,80,55,00,00,01,0A,
5248880,000001DA,false,Rx,0,8,01,00,00,00,00,01,00,90,
5251540,000001DB,false,Rx,0,8,FF,E0,C0,AE,00,00,03,AA,
5251812,000001DC,false,Rx,0,8,FF,FF,FF,FF,08,C0,C7,88,
5253933,000001D4,false,Rx,0,8,F7,07,00,00,03,46,70,BB,
5254149,000001F2,false,Rx,0,8,08,64,00,00,00,11,00,06,
5254371,0000050B,false,Rx,0,6,00,00,00,C0,00,60,00,00,
5256727,0000011A,false,Rx,0,8,01,40,80,55,40,00,02,C7,
5258848,000001DA,false,Rx,0,8,01,00,00,00,00,01,01,15,
5261525,000001DB,false,Rx,0,8,FF,E0,C0,AE,00,00,00,A0,
5261798,000001DC,false,Rx,0,8,FF,FF,FF,FF,0C,C4,C0,2C,
5264220,000001D4,false,Rx,0,8,F7,07,00,00,43,46,70,7C,
5264441,000001F2,false,Rx,0,8,08,64,00,00,00,11,01,07,
5264714,00000284,false,Rx,0,8,00,00,00,00,00,00,17,9D,
5273688,0000011A,false,Rx,0,8,01,40,80,AA,80,00,03,D1,
5273753,000001DA,false,Rx,0,8,01,00,00,00,00,01,02,1F,
5273816,000001DB,false,Rx,0,8,FF,E0,C0,AE,00,00,01,25,
5273879,000001DC,false,Rx,0,8,FF,FF,FF,FF,01,08,D1,CC,
5274398,000001D4,false,Rx,0,8,F7,07,00,00,83,46,70,B0,
5274671,000001F2,false,Rx,0,8,08,64,00,00,00,11,02,08,
5276015,0000011A,false,Rx,0,8,01,40,80,AA,C0,00,00,1C,
5278818,000001DA,false,Rx,0,8,02,00,00,00,00,01,03,93,
5281538,000001DB,false,Rx,0,8,00,00,C0,AE,00,00,02,6F,
5281811,000001DC,false,Rx,0,8,FF,FF,FF,FF,04,D8,C6,C7,
5284665,000001D4,false,Rx,0,8,F7,07,00,00,C3,46,70,77,
5284938,000001F2,false,Rx,0,8,08,64,00,00,00,11,03,09,
5285155,00000284,false,Rx,0,8,00,00,00,00,00,00,18,9E,
5286747,0000011A,false,Rx,0,8,01,40,80,55,00,00,01,0A,
5288868,000001DA,false,Rx,0,8,13,00,00,00,00,01,00,EE,
5289085,0000055A,false,Rx,0,8,00,44,41,00,5F,42,42,C8,
5291747,000001DB,false,Rx,0,8,FF,C0,C0,AE,00,00,03,FB,
5291960,000001DC,false,Rx,0,8,FF,FF,FF,FF,08,C0,C7,88,
5292175,0000055B,false,Rx,0,8,AB,00,55,00,FF,C0,11,79,
5294951,000001D4,false,Rx,0,8,F7,07,00,00,03,46,70,BB,
5295166,000001F2,false,Rx,0,8,08,64,00,00,00,11,00,06,
5296694,0000011A,false,Rx,0,8,01,40,80,55,40,00,02,C7,
5298874,000001DA,false,Rx,0,8,37,00,00,00,00,01,01,97,
5301564,000001DB,false,Rx,0,8,FF,80,C0,AE,00,00,00,53,
5301777,000001DC,false,Rx,0,8,FF,FF,FF,FF,0C,C4,C0,2C,
5305207,000001D4,false,Rx,0,8,F7,07,00,00,43,46,70,7C,
5305428,000001F2,false,Rx,0,8,08,64,00,00,00,11,01,07,
5305701,00000284,false,Rx,0,8,00,00,00,00,00,00,19,9F,
5306750,0000011A,false,Rx,0,8,01,40,80,AA,80,00,03,D1,
5308398,0000054A,false,Rx,0,8,10,00,70,06,22,00,00,3D,
5308847,000001DA,false,Rx,0,8,53,00,00,00,00,01,02,24,
5309449,0000054B,false,Rx,0,8,00,48,88,12,0C,00,00,00,
5310439,0000054C,false,Rx,0,8,8E,66,40,00,00,40,7C,00,
5311444,0000054F,false,Rx,0,8,44,01,00,00,07,00,88,33,
5311657,000001DB,false,Rx,0,8,FF,60,C0,AE,00,00,01,E4,
5311870,000001DC,false,Rx,0,8,FF,FF,FF,FF,01,08,D1,CC,
5315485,000001D4,false,Rx,0,8,F7,07,00,00,83,46,70,B0,
5315698,000001F2,false,Rx,0,8,08,64,00,00,00,11,02,08,
5315971,0000011A,false,Rx,0,8,01,40,80,AA,C0,00,00,1C,
5316129,0000050C,false,Rx,0,6,00,00,00,03,B2,9A,00,00,
5317657,00000380,false,Rx,0,8,02,04,10,21,00,00,00,38,
5317930,000005BF,false,Rx,0,8,00,00,00,00,18,00,00,19,
5318864,000001DA,false,Rx,0,8,62,00,00,00,00,01,03,36,
5319082,0000056E,false,Rx,0,1,46,00,00,00,00,00,00,00,
5321569,000001DB,false,Rx,0,8,FF,40,C0,6E,00,00,02,98,
5321783,000001DC,false,Rx,0,8,FF,FF,FF,FF,04,D8,C6,C7,
5331575,000001D4,false,Rx,0,8,F7,07,00,00,C3,46,70,77,
5331640,000001F2,false,Rx,0,8,08,64,00,00,00,11,03,09,
5331703,00000284,false,Rx,0,8,00,00,00,00,00,00,1A,A0,
5331799,0000011A,false,Rx,0,8,01,40,80,55,00,00,01,0A,
5331862,000001DA,false,Rx,0,8,78,00,00,00,00,01,00,7A,
5331925,000001DB,false,Rx,0,8,FF,20,C0,6E,00,00,03,EE,
5331988,000001DC,false,Rx,0,8,FF,FF,FF,FF,08,C0,C7,88,
5335901,000001D4,false,Rx,0,8,F7,07,00,00,03,46,70,BB,
5336116,000001F2,false,Rx,0,8,08,64,00,00,00,11,00,06,
5336338,0000050A,false,Rx,0,6,04,60,00,1D,00,20,00,00,
5336551,0000011A,false,Rx,0,8,01,40,80,55,40,00,02,C7,
5338851,000001DA,false,Rx,0,8,8A,00,00,00,00,01,01,AE,
5341516,000001DB,false,Rx,0,8,FF,20,C0,6E,00,00,00,E4,
5341789,000001DC,false,Rx,0,8,FF,FF,FF,FF,0C,C4,C0,2C,
5346113,000001D4,false,Rx,0,8,F7,07,00,00,43,46,70,7C,
5346393,000001F2,false,Rx,0,8,08,64,00,00,00,11,01,07,
5346607,00000284,false,Rx,0,8,00,00,00,00,00,00,1B,A1,
5346880,0000011A,false,Rx,0,8,01,40,80,AA,80,00,03,D1,
5348822,000001DA,false,Rx,0,8,95,00,00,00,00,01,02,F9,
5351542,000001DB,false,Rx,0,8,FF,00,C0,6E,00,00,01,30,
5351754,000001DC,false,Rx,0,8,FF,FF,FF,FF,01,08,D1,CC,
5355962,0000011A,false,Rx,0,8,01,40,80,AA,C0,00,00,1C,
5356362,000001D4,false,Rx,0,8,F7,07,00,00,83,46,70,B0,
5356635,000001F2,false,Rx,0,8,08,64,00,00,00,11,02,08,
5356849,00000284,false,Rx,0,8,00,00,00,00,00,00,1C,A2,
5357065,0000050B,false,Rx,0,6,00,00,00,C0,00,60,00,00,
5358830,000001DA,false,Rx,0,8,A3,00,00,00,00,01,03,FE,
5361551,000001DB,false,Rx,0,8,FF,00,C0,6E,00,00,02,3A,
5361765,000001DC,false,Rx,0,8,FF,FF,FF,FF,04,D8,C6,C7,
5366628,000001D4,false,Rx,0,8,F7,07,00,00,C3,46,70,77,
5366842,0000011A,false,Rx,0,8,01,40,80,55,00,00,01,0A,
5367116,000001F2,false,Rx,0,8,08,64,00,00,00,11,03,09,
5368821,000001DA,false,Rx,0,8,AB,00,00,00,00,01,00,CC,
5371550,000001DB,false,Rx,0,8,FF,00,C0,6E,00,00,03,BF,
5371764,000001DC,false,Rx,0,8,FF,FF,FF,FF,08,C0,C7,88,
5376392,0000011A,false,Rx,0,8,01,40,80,55,40,00,02,C7,
5376841,000001D4,false,Rx,0,8,F7,07,00,00,03,46,70,BB,
5377116,000001F2,false,Rx,0,8,08,64,00,00,00,11,00,06,
5377337,00000284,false,Rx,0,8,00,00,00,00,00,00,1D,A3,
5378859,000001DA,false,Rx,0,8,B0,00,00,00,00,01,01,08,
5381523,000001DB,false,Rx,0,8,FF,00,C0,6E,00,00,00,B5,
5388470,000001DC,false,Rx,0,8,FF,FF,FF,FF,0C,C4,C0,2C,
5388535,0000011A,false,Rx,0,8,01,40,80,AA,80,00,03,D1,
5388598,000001D4,false,Rx,0,8,F7,07,00,00,43,46,70,7C,
5388661,000001F2,false,Rx,0,8,08,64,00,00,00,11,01,07,
5388816,000001DA,false,Rx,0,8,B5,00,00,00,00,01,02,19,
5389095,0000055A,false,Rx,0,8,00,44,41,00,5F,42,42,C8,
5391697,000001DB,false,Rx,0,8,FF,20,C0,6E,00,00,01,61,
5391970,000001DC,false,Rx,0,8,FF,FF,FF,FF,01,08,D1,CC,
5392188,0000055B,false,Rx,0,8,AB,00,AA,00,FF,C0,12,34,
5395920,0000011A,false,Rx,0,8,01,40,80,AA,C0,00,00,1C,
5397393,000001D4,false,Rx,0,8,F7,07,00,00,83,46,70,B0,
5397607,000001F2,false,Rx,0,8,08,64,00,00,00,11,02,08,
5397880,00000284,false,Rx,0,8,00,00,00,00,00,00,1E,A4,
5398870,000001DA,false,Rx,0,8,B8,00,00,00,00,01,03,BF,
5401532,000001DB,false,Rx,0,8,FF,60,C0,6A,00,00,02,91,
5401745,000001DC,false,Rx,0,8,6E,04,0F,FD,04,D8,C6,DD,
5406668,0000011A,false,Rx,0,8,01,40,80,55,00,00,01,0A,
5407598,000001D4,false,Rx,0,8,F7,07,00,00,C3,46,70,77,
5407871,000001F2,false,Rx,0,8,08,64,00,00,00,11,03,09,
5408864,000001DA,false,Rx,0,8,BA,00,00,00,00,01,00,BB,
5409498,0000054A,false,Rx,0,8,9E,00,70,06,22,00,00,3D,
5410492,0000054B,false,Rx,0,8,00,48,88,12,0C,00,00,00,
5411482,0000054C,false,Rx,0,8,8E,66,40,00,00,40,7C,00,
5411755,000001DB,false,Rx,0,8,FF,80,C0,6A,00,00,03,26,
5411967,000001DC,false,Rx,0,8,6E,04,0F,FD,08,C0,C7,92,
5412516,0000054F,false,Rx,0,8,44,01,00,00,07,40,88,33,
5416376,0000011A,false,Rx,0,8,01,40,80,55,40,00,02,C7,
5417778,00000380,false,Rx,0,8,02,04,10,21,00,00,00,05,
5417991,000001D4,false,Rx,0,8,F7,07,00,00,03,46,70,BB,
5418273,000001F2,false,Rx,0,8,08,64,00,00,00,11,00,06,
5418487,00000284,false,Rx,0,8,00,00,00,00,00,00,1F,A5,
5418700,0000050C,false,Rx,0,6,00,00,00,00,5D,C8,00,00,
5418972,000001DA,false,Rx,0,8,BB,00,00,00,00,01,01,39,
5419189,000005BF,false,Rx,0,8,00,00,00,00,18,00,00,2A,
5419291,0000056E,false,Rx,0,1,46,00,00,00,00,00,00,00,
5421528,000001DB,false,Rx,0,8,FF,A0,C0,6A,00,00,00,7D,
5421801,000001DC,false,Rx,0,8,6E,04,0F,FD,0C,C4,C0,36,
5426669,0000011A,false,Rx,0,8,01,40,80,AA,80,00,03,D1,
5428076,000001D4,false,Rx,0,8,F7,07,00,00,43,46,70,7C,
5428356,000001F2,false,Rx,0,8,08,64,00,00,00,11,01,07,
5428804,000001DA,false,Rx,0,8,BD,00,00,00,00,01,02,21,
5431523,000001DB,false,Rx,0,8,FF,A0,C0,6A,00,00,01,F8,
5431796,000001DC,false,Rx,0,8,6E,04,0F,FD,01,08,D1,D6,
5435941,0000011A,false,Rx,0,8,01,40,80,AA,C0,00,00,1C,
5438305,000001D4,false,Rx,0,8,F7,07,00,00,83,46,70,B0,
5446120,000001F2,false,Rx,0,8,08,64,00,00,00,11,02,08,
5446185,00000284,false,Rx,0,8,00,00,00,00,00,00,20,A6,
5446256,000001DA,false,Rx,0,8,BE,00,00,00,00,01,03,AD,
5446319,0000050A,false,Rx,0,6,04,00,00,1D,00,20,00,00,
5446382,000001DB,false,Rx,0,8,FF,C0,C0,6A,00,00,02,01,
5446445,000001DC,false,Rx,0,8,6E,04,0F,FD,04,D8,C6,DD,
5446659,0000011A,false,Rx,0,8,01,40,80,55,00,00,01,0A,
5448543,000001D4,false,Rx,0,8,F7,07,00,00,C3,46,70,77,
5448816,000001F2,false,Rx,0,8,08,64,00,00,00,11,03,09,
5449032,000001DA,false,Rx,0,8,BF,00,00,00,00,01,00,A0,
5451517,000001DB,false,Rx,0,8,FF,C0,C0,6A,00,00,03,84,
5451789,000001DC,false,Rx,0,8,6E,04,0F,FD,08,C0,C7,92,
5456358,0000011A,false,Rx,0,8,01,40,80,55,40,00,02,C7,
5458831,000001D4,false,Rx,0,8,F7,07,00,00,03,46,70,BB,
5459048,000001DA,false,Rx,0,8,C0,00,00,00,00,01,01,DD,
5459327,000001F2,false,Rx,0,8,08,64,00,00,00,11,00,06,
5459540,00000284,false,Rx,0,8,00,00,00,00,00,00,21,A7,
5459754,0000050B,false,Rx,0,6,00,00,00,C0,00,60,00,00,
5461535,000001DB,false,Rx,0,8,FF,C0,C0,AA,00,00,00,A9,
5461748,000001DC,false,Rx,0,8,6E,04,0F,FD,0C,C4,C0,36,
5466672,0000011A,false,Rx,0,8,01,40,80,AA,80,00,03,D1,
5468850,000001DA,false,Rx,0,8,C0,00,00,00,00,01,02,D7,
5469083,000001D4,false,Rx,0,8,F7,07,00,00,43,46,70,7C,
5469305,000001F2,false,Rx,0,8,08,64,00,00,00,11,01,07,
5471543,000001DB,false,Rx,0,8,FF,C0,C0,AA,00,00,01,2C,
5471755,000001DC,false,Rx,0,8,6E,04,0F,FD,01,08,D1,D6,
5475845,0000011A,false,Rx,0,8,01,40,80,AA,C0,00,00,1C,
5478804,000001DA,false,Rx,0,8,C0,00,00,00,00,01,03,52,
5479322,000001D4,false,Rx,0,8,F7,07,00,00,83,46,70,B0,
5479535,000001F2,false,Rx,0,8,08,64,00,00,00,11,02,08,
5479807,00000284,false,Rx,0,8,00,00,00,00,00,00,22,A8,
5481517,000001DB,false,Rx,0,8,FF,C0,C0,AA,00,00,02,26,
5481788,000001DC,false,Rx,0,8,6E,04,0F,FD,04,D8,C6,DD,
5486666,0000011A,false,Rx,0,8,01,40,80,55,00,00,01,0A,
5488845,000001DA,false,Rx,0,8,C0,00,00,00,00,01,00,58,
5489062,0000055A,false,Rx,0,8,00,44,41,00,5F,42,42,C8,
5489518,000001D4,false,Rx,0,8,F7,07,00,00,C3,46,70,77,
5489790,000001F2,false,Rx,0,8,08,64,00,00,00,11,03,09,
5491733,000001DB,false,Rx,0,8,FF,E0,C0,AA,00,00,03,F2,
5491947,000001DC,false,Rx,0,8,6E,04,0F,FD,08,C0,C7,92,
5492162,0000055B,false,Rx,0,8,AB,00,AA,00,FF,C0,13,B1,
5503042,0000011A,false,Rx,0,8,01,40,80,55,40,00,02,C7,
5503106,000001DA,false,Rx,0,8,C1,00,00,00,00,01,01,DA,
5503170,000001D4,false,Rx,0,8,F7,07,00,00,03,46,70,BB,
5503241,000001F2,false,Rx,0,8,08,64,00,00,00,11,00,06,
5503304,00000284,false,Rx,0,8,00,00,00,00,00,00,23,A9,
5503367,000001DB,false,Rx,0,8,FF,E0,C0,AA,00,00,00,F8,
5503430,000001DC,false,Rx,0,8,6E,04,0F,FD,0C,C4,C0,36,
5506622,0000011A,false,Rx,0,8,01,40,80,AA,80,00,03,D1,
5508569,0000054A,false,Rx,0,8,10,00,70,06,22,00,00,3D,
5508841,000001DA,false,Rx,0,8,C1,00,00,00,00,01,02,D0,
5509595,0000054B,false,Rx,0,8,00,48,88,12,0C,00,00,00,
5510046,000001D4,false,Rx,0,8,F7,07,00,00,43,46,70,7C,
5510267,000001F2,false,Rx,0,8,08,64,00,00,00,11,01,07,
5510539,0000054C,false,Rx,0,8,8E,66,40,00,00,40,7C,00,
5511528,000001DB,false,Rx,0,8,FF,E0,C0,AA,00,00,01,7D,
5511741,000001DC,false,Rx,0,8,6E,04,0F,FD,01,08,D1,D6,
5512014,0000054F,false,Rx,0,8,44,01,00,00,07,80,88,33,
5515886,0000011A,false,Rx,0,8,01,40,80,AA,C0,00,00,1C,
5517845,00000380,false,Rx,0,8,02,04,10,21,00,00,00,16,
5518119,000005BF,false,Rx,0,8,00,00,00,00,18,00,00,3B,
5518812,000001DA,false,Rx,0,8,C1,00,00,00,00,01,03,55,
5519026,0000056E,false,Rx,0,1,46,00,00,00,00,00,00,00,
5520379,000001D4,false,Rx,0,8,F7,07,00,00,83,46,70,B0,
5520652,000001F2,false,Rx,0,8,08,64,00,00,00,11,02,08,
5520866,00000284,false,Rx,0,8,00,00,00,00,00,00,24,AA,
5521082,0000050C,false,Rx,0,6,00,00,00,01,5D,5F,00,00,
5521540,000001DB,false,Rx,0,8,FF,E0,C0,AA,00,00,02,77,
5521753,000001DC,false,Rx,0,8,6E,04,0F,FD,04,D8,C6,DD,
5526622,0000011A,false,Rx,0,8,01,40,80,55,00,00,01,0A,
5528806,000001DA,false,Rx,0,8,C1,00,00,00,00,01,00,5F,
5530514,000001D4,false,Rx,0,8,F7,07,00,00,C3,46,70,77,
5530727,000001F2,false,Rx,0,8,08,64,00,00,00,11,03,09,
5531541,000001DB,false,Rx,0,8,FF,E0,C0,AA,00,00,03,F2,
5531755,000001DC,false,Rx,0,8,6E,04,0F,FD,08,C0,C7,92,
5536346,0000011A,false,Rx,0,8,01,40,80,55,40,00,02,C7,
5538821,000001DA,false,Rx,0,8,C1,00,08,00,00,01,01,F3,
5540764,000001D4,false,Rx,0,8,F7,07,00,00,03,46,70,BB,
5540978,000001F2,false,Rx,0,8,08,64,00,00,00,11,00,06,
5541261,00000284,false,Rx,0,8,00,00,00,00,00,00,25,AB,
5541475,0000050A,false,Rx,0,6,04,20,00,1D,00,20,00,00,
5541688,000001DB,false,Rx,0,8,FF,E0,C0,AA,00,00,00,F8,
5541901,000001DC,false,Rx,0,8,6E,04,0F,FD,0C,C4,C0,36,
5546587,0000011A,false,Rx,0,8,01,40,80,AA,80,00,03,D1,
5548824,000001DA,false,Rx,0,8,C1,00,08,00,00,01,02,F9,
5550971,000001D4,false,Rx,0,8,F7,07,00,00,43,46,70,7C,
5551256,000001F2,false,Rx,0,8,08,64,00,00,00,11,01,07,
5551528,000001DB,false,Rx,0,8,FF,E0,C0,AA,00,00,01,7D,
5551801,000001DC,false,Rx,0,8,6E,04,0F,FD,01,08,D1,D6,
5561309,0000011A,false,Rx,0,8,01,40,80,AA,C0,00,00,1C,
5561373,000001DA,false,Rx,0,8,C1,00,08,00,00,01,03,7C,
5561467,000001D4,false,Rx,0,8,F7,07,00,00,83,46,70,B0,
5561531,000001F2,false,Rx,0,8,00,64,00,00,00,12,02,01,
5561744,000001DB,false,Rx,0,8,FF,E0,C0,AA,00,00,02,77,
5561958,000001DC,false,Rx,0,8,6E,04,0F,FD,04,D8,C6,DD,
5562240,00000284,false,Rx,0,8,00,00,00,00,00,00,26,AC,
5562452,0000050B,false,Rx,0,6,00,00,00,C0,00,60,00,00,
5566600,0000011A,false,Rx,0,8,01,40,80,55,00,00,01,0A,
5568778,000001DA,false,Rx,0,8,C1,00,08,00,00,01,00,76,
5571511,000001D4,false,Rx,0,8,F7,07,00,00,C3,46,70,77,
5571725,000001DB,false,Rx,0,8,FF,E0,C0,AA,00,00,03,F2,
5571996,000001DC,false,Rx,0,8,6E,04,0F,FD,08,C0,C7,92,
5572213,000001F2,false,Rx,0,8,00,64,00,00,00,12,03,02,
5576307,0000011A,false,Rx,0,8,01,40,80,55,40,00,02,C7,
5578779,000001DA,false,Rx,0,8,C1,00,08,00,00,01,01,F3,
5581502,000001DB,false,Rx,0,8,FF,E0,C0,AA,00,00,00,F8,
5581775,000001D4,false,Rx,0,8,F7,07,00,00,03,46,70,BB,
5581988,000001DC,false,Rx,0,8,6E,04,0F,FD,0C,C4,C0,36,
5582273,000001F2,false,Rx,0,8,00,64,00,00,00,12,00,0F,
5582486,00000284,false,Rx,0,8,00,00,00,00,00,00,27,AD,
5586587,0000011A,false,Rx,0,8,01,40,80,AA,80,00,03,D1,
5588824,000001DA,false,Rx,0,8,C1,00,08,00,00,01,02,F9,
5589041,0000055A,false,Rx,0,8,00,44,41,00,5F,43,4A,C8,
5591700,000001DB,false,Rx,0,8,FF,E0,C0,AA,00,00,01,7D,
5591972,000001DC,false,Rx,0,8,6E,04,0F,FD,01,08,D1,D6,
5592189,000001D4,false,Rx,0,8,F7,07,00,00,43,46,70,7C,
5592411,000001F2,false,Rx,0,8,00,64,00,00,00,12,01,00,
5592682,0000055B,false,Rx,0,8,AB,00,AA,00,FF,C0,10,BB,
5595877,0000011A,false,Rx,0,8,01,40,80,AA,C0,00,00,1C,
5598774,000001DA,false,Rx,0,8,C1,00,08,00,00,01,03,7C,
5601495,000001DB,false,Rx,0,8,FF,E0,C0,AA,00,00,02,77,
5601767,000001DC,false,Rx,0,8,6E,04,0F,FD,04,D8,C6,DD,
5602219,000001D4,false,Rx,0,8,F7,07,00,00,83,46,70,B0,
5602439,000001F2,false,Rx,0,8,00,64,00,00,00,12,02,01,
5602711,00000284,false,Rx,0,8,00,00,00,00,00,00,28,AE,
5606562,0000011A,false,Rx,0,8,01,40,80,55,00,00,01,0A,
5608628,0000054A,false,Rx,0,8,9E,00,70,06,22,00,00,3D,
5608900,000001DA,false,Rx,0,8,C1,00,08,00,00,01,00,76,
5609654,0000054B,false,Rx,0,8,00,48,88,12,0C,00,00,00,
5610644,0000054C,false,Rx,0,8,8E,66,40,00,00,40,7C,00,
5618278,000001DB,false,Rx,0,8,FF,E0,C0,AA,00,00,03,F2,
5618342,000001DC,false,Rx,0,8,6E,04,0F,FD,08,C0,C7,92,
5618405,0000054F,false,Rx,0,8,44,01,00,00,07,C0,88,33,
5618469,000001D4,false,Rx,0,8,F7,07,00,00,C3,46,70,77,
5618532,000001F2,false,Rx,0,8,00,64,00,00,00,12,03,02,
5618595,0000011A,false,Rx,0,8,01,40,80,55,40,00,02,C7,
5618658,00000380,false,Rx,0,8,02,04,10,21,00,00,00,27,
5618721,000005BF,false,Rx,0,8,00,00,00,00,18,00,00,08,
5618817,000001DA,false,Rx,0,8,C1,00,08,00,00,01,01,F3,
5619032,0000056E,false,Rx,0,1,46,00,00,00,00,00,00,00,
5621517,000001DB,false,Rx,0,8,FF,E0,C0,AA,00,00,00,F8,
5621730,000001DC,false,Rx,0,8,6E,04,0F,FD,0C,C4,C0,36,
5622779,000001D4,false,Rx,0,8,F7,07,00,00,03,46,70,BB,
5623055,000001F2,false,Rx,0,8,00,64,00,00,00,12,00,0F,
5623270,00000284,false,Rx,0,8,00,00,00,00,00,00,29,AF,
5623483,0000050C,false,Rx,0,6,00,00,00,02,5D,63,00,00,
5626557,0000011A,false,Rx,0,8,01,40,80,AA,80,00,03,D1,
5628799,000001DA,false,Rx,0,8,C1,00,08,00,00,01,02,F9,
5631523,000001DB,false,Rx,0,8,FF,E0,C0,AA,00,00,01,7D,
5631736,000001DC,false,Rx,0,8,6E,04,0F,FD,01,08,D1,D6,
5632904,000001D4,false,Rx,0,8,F7,07,00,00,43,46,70,7C,
5633177,000001F2,false,Rx,0,8,00,64,00,00,00,12,01,00,
5633398,000005A9,false,Rx,0,8,FF,FF,FC,12,C4,70,00,00,
5635757,0000011A,false,Rx,0,8,01,40,80,AA,C0,00,00,1C,
5638771,000001DA,false,Rx,0,8,C1,00,08,00,00,01,03,7C,
5641492,000001DB,false,Rx,0,8,FF,E0,C0,AA,00,00,02,77,
5641764,000001DC,false,Rx,0,8,6E,04,0F,FD,04,D8,C6,DD,
5643234,000001D4,false,Rx,0,8,F7,07,00,00,83,46,70,B0,
5643505,000001F2,false,Rx,0,8,00,64,00,00,00,12,02,01,
5643718,00000284,false,Rx,0,8,00,00,00,00,00,00,2A,B0,
5643931,0000050A,false,Rx,0,6,04,40,00,1D,00,20,00,00,
5646531,0000011A,false,Rx,0,8,01,40,80,55,00,00,01,0A,
5648784,000001DA,false,Rx,0,8,C1,00,08,00,00,01,00,76,
5651505,000001DB,false,Rx,0,8,FF,E0,C0,AA,00,00,03,F2,
5651776,000001DC,false,Rx,0,8,6E,04,0F,FD,08,C0,C7,92,
5653424,000001D4,false,Rx,0,8,F7,07,00,00,C3,46,70,77,
5653637,000001F2,false,Rx,0,8,00,64,00,00,00,12,03,02,
5656292,0000011A,false,Rx,0,8,01,40,80,55,40,00,02,C7,
5658823,000001DA,false,Rx,0,8,C1,00,08,00,00,01,01,F3,
5661496,000001DB,false,Rx,0,8,FF,E0,C0,AA,00,00,00,F8,
5661769,000001DC,false,Rx,0,8,6E,04,0F,FD,0C,C4,C0,36,
5663712,000001D4,false,Rx,0,8,F7,07,00,00,07,46,70,5D,
5663925,000001F2,false,Rx,0,8,10,64,00,00,00,14,00,02,
5664200,00000284,false,Rx,0,8,00,00,00,00,00,00,2B,B1,
5664362,0000050B,false,Rx,0,6,00,00,00,C0,00,60,00,00,
5666541,0000011A,false,Rx,0,8,01,40,80,AA,80,00,03,D1,
5676127,000001DA,false,Rx,0,8,C1,00,08,00,00,01,02,F9,
5676191,000001DB,false,Rx,0,8,FF,E0,C0,AA,00,00,01,7D,
5676262,000001DC,false,Rx,0,8,6E,04,0F,FD,01,08,D1,D6,
5676325,000001D4,false,Rx,0,8,F7,07,00,00,47,46,70,9A,
5676388,000001F2,false,Rx,0,8,10,64,00,00,00,14,01,03,
5676451,0000011A,false,Rx,0,8,01,40,80,AA,C0,00,00,1C,
5678809,000001DA,false,Rx,0,8,C1,64,18,00,00,01,03,25,
5681528,000001DB,false,Rx,0,8,00,00,C0,AA,00,00,02,37,
5681741,000001DC,false,Rx,0,8,6E,04,0F,FD,04,D8,C6,DD,
5684171,000001D4,false,Rx,0,8,F7,07,00,00,87,46,70,56,
5684392,000001F2,false,Rx,0,8,10,64,00,00,00,14,02,04,
5684664,00000284,false,Rx,0,8,00,00,00,00,00,00,2C,B2,
5686551,0000011A,false,Rx,0,8,01,40,80,55,00,00,01,0A,
5688848,000001DA,false,Rx,0,8,C1,64,18,00,00,01,00,2F,
5689122,0000055A,false,Rx,0,8,00,44,41,00,5F,43,5A,C8,
5691665,000001DB,false,Rx,0,8,00,00,C0,AA,00,00,03,B2,
5691938,000001DC,false,Rx,0,8,6E,04,0F,FD,08,C0,C7,92,
5692154,0000055B,false,Rx,0,8,AB,00,AA,00,FF,C0,11,3E,
5694402,000001D4,false,Rx,0,8,F7,07,00,00,C7,46,70,91,
5694675,000001F2,false,Rx,0,8,10,64,00,00,00,14,03,05,
5696504,0000011A,false,Rx,0,8,01,40,80,55,40,00,02,C7,
5698861,000001DA,false,Rx,0,8,C1,64,18,00,00,01,01,AA,
5701818,000001DB,false,Rx,0,8,00,00,C0,AA,00,00,00,B8,
5702092,000001DC,false,Rx,0,8,6E,04,0F,FD,0C,C4,C0,36,
5702314,000005BC,false,Rx,0,8,25,03,2A,39,91,05,40,32,
5702527,000005C0,false,Rx,0,8,80,72,72,00,66,D0,00,00,
5704705,000001D4,false,Rx,0,8,F7,07,00,00,07,46,70,5D,
5704919,000001F2,false,Rx,0,8,10,64,00,00,00,14,00,02,
5705194,00000284,false,Rx,0,8,00,00,00,00,00,00,2D,B3,
5705356,000005B9,false,Rx,0,5,00,78,07,FF,28,00,00,00,
5706522,0000011A,false,Rx,0,8,01,40,80,AA,80,00,03,D1,
5708703,0000054A,false,Rx,0,8,10,00,70,06,22,00,00,3D,
5708976,000001DA,false,Rx,0,8,C1,64,18,00,00,01,02,A0,
5709730,0000054B,false,Rx,0,8,00,48,88,12,0C,00,00,00,
5710720,0000054C,false,Rx,0,8,8E,66,40,00,00,40,7C,00,
5711533,000001DB,false,Rx,0,8,00,00,C0,AA,00,00,01,3D,
5711747,000001DC,false,Rx,0,8,6E,04,0F,FD,01,08,D1,D6,
5711960,0000054F,false,Rx,0,8,44,01,00,00,07,00,88,33,
5714976,000001D4,false,Rx,0,8,F7,07,00,00,47,46,70,9A,
5715192,000001F2,false,Rx,0,8,10,64,00,00,00,14,01,03,
5715767,0000011A,false,Rx,0,8,01,40,80,AA,C0,00,00,1C,
5718066,00000380,false,Rx,0,8,02,04,10,21,00,00,00,38,
5718347,000005BF,false,Rx,0,8,00,00,00,00,20,00,00,12,
5718855,000001DA,false,Rx,0,8,C1,64,18,00,00,01,03,25,
5719134,0000056E,false,Rx,0,1,46,00,00,00,00,00,00,00,
5721535,000001DB,false,Rx,0,8,FF,E0,C0,AA,00,00,02,77,
5721749,000001DC,false,Rx,0,8,6E,04,0F,FD,04,D8,C6,DD,
5725179,000001D4,false,Rx,0,8,F7,07,00,00,87,46,70,56,
5725459,000001F2,false,Rx,0,8,10,64,00,00,00,14,02,04,
5725673,00000284,false,Rx,0,8,00,00,00,00,00,00,2E,B4,
5725886,0000050C,false,Rx,0,6,00,00,00,03,5D,F4,00,00,
5734931,0000011A,false,Rx,0,8,01,40,80,55,00,00,01,0A,
5734996,000001DA,false,Rx,0,8,C1,64,18,00,00,01,00,2F,
5735063,000001DB,false,Rx,0,8,FF,C0,C0,AA,00,00,03,A3,
5735126,000001DC,false,Rx,0,8,6E,04,0F,FD,08,C0,C7,92,
5735348,000001D4,false,Rx,0,8,F7,07,00,00,C7,46,70,91,
5735621,000001F2,false,Rx,0,8,10,64,00,00,00,14,03,05,
5736436,0000011A,false,Rx,0,8,01,40,80,55,40,00,02,C7,
5738851,000001DA,false,Rx,0,8,C1,64,18,00,00,01,01,AA,
5741516,000001DB,false,Rx,0,8,FF,C0,C0,6A,00,00,00,8E,
5741730,000001DC,false,Rx,0,8,6E,04,0F,FD,0C,C4,C0,36,
5745641,000001D4,false,Rx,0,8,F7,07,00,00,07,46,70,5D,
5745855,000001F2,false,Rx,0,8,10,64,00,00,00,14,00,02,
5746130,00000284,false,Rx,0,8,00,00,00,00,00,00,2F,B5,
5746292,0000050A,false,Rx,0,6,04,62,00,1D,00,20,00,00,
5746565,0000011A,false,Rx,0,8,01,40,80,AA,80,00,03,D1,
5748863,000001DA,false,Rx,0,8,C1,64,18,00,00,01,02,A0,
5751523,000001DB,false,Rx,0,8,FF,A0,C0,6A,00,00,01,F8,
5751737,000001DC,false,Rx,0,8,6E,04,0F,FD,01,08,D1,D6,
5755763,0000011A,false,Rx,0,8,01,40,80,AA,C0,00,00,1C,
5755977,000001D4,false,Rx,0,8,F7,07,00,00,47,46,70,9A,
5756261,000001F2,false,Rx,0,8,10,64,00,00,00,14,01,03,
5758856,000001DA,false,Rx,0,8,C1,64,18,00,00,01,03,25,
5761516,000001DB,false,Rx,0,8,FF,A0,C0,6A,00,00,02,F2,
5761729,000001DC,false,Rx,0,8,6E,04,0F,FD,04,D8,C6,DD,
5766114,000001D4,false,Rx,0,8,F7,07,00,00,87,46,70,56,
5766395,000001F2,false,Rx,0,8,10,64,00,00,00,14,02,04,
5766607,0000011A,false,Rx,0,8,01,40,80,55,00,00,01,0A,
5766879,00000284,false,Rx,0,8,00,00,00,00,00,00,30,B6,
5767100,0000050B,false,Rx,0,6,00,00,00,C0,00,60,00,00,
5768864,000001DA,false,Rx,0,8,C1,64,18,00,00,01,00,2F,
5771476,000001DB,false,Rx,0,8,FF,A0,C0,6A,00,00,03,77,
5771749,000001DC,false,Rx,0,8,6E,04,0F,FD,08,C0,C7,92,
5776377,000001D4,false,Rx,0,8,F7,07,00,00,C7,46,70,91,
5776591,0000011A,false,Rx,0,8,01,40,80,55,40,00,02,C7,
5776864,000001F2,false,Rx,0,8,10,64,00,00,00,14,03,05,
5777080,00000284,false,Rx,0,8,00,00,00,00,00,00,31,B7,
5778845,000001DA,false,Rx,0,8,C1,64,18,00,00,01,01,AA,
5781511,000001DB,false,Rx,0,8,FF,A0,C0,6A,00,00,00,7D,
5781725,000001DC,false,Rx,0,8,6E,04,0F,FD,0C,C4,C0,36,
5791446,0000011A,false,Rx,0,8,01,40,80,AA,80,00,03,D1,
5791510,000001D4,false,Rx,0,8,F7,07,00,00,07,46,70,5D,
5791573,000001F2,false,Rx,0,8,10,64,00,00,00,14,00,02,
5791669,000001DA,false,Rx,0,8,C1,64,18,00,00,01,02,A0,
5791732,0000055A,false,Rx,0,8,00,44,41,00,5F,43,5B,48,
5791795,000001DB,false,Rx,0,8,FF,80,C0,6A,00,00,01,A9,
5791890,000001DC,false,Rx,0,8,6E,04,0F,FD,01,08,D1,D6,
5792165,0000055B,false,Rx,0,8,AB,00,AA,00,FF,C0,12,34,
5795659,0000011A,false,Rx,0,8,01,40,80,AA,C0,00,00,1C,
5796885,000001D4,false,Rx,0,8,F7,07,00,00,47,46,70,9A,
5797100,000001F2,false,Rx,0,8,10,64,00,00,00,14,01,03,
5797380,00000284,false,Rx,0,8,00,00,00,00,00,00,32,B8,
5798846,000001DA,false,Rx,0,8,C1,64,18,00,00,01,03,25,
5801475,000001DB,false,Rx,0,8,FF,80,C0,6A,00,00,02,A3,
5801748,000001DC,false,Rx,0,8,6E,04,0F,FD,04,D8,C6,DD,
5806494,0000011A,false,Rx,0,8,01,40,80,55,00,00,01,0A,
5807065,000001D4,false,Rx,0,8,F7,07,00,00,87,46,70,56,
5807286,000001F2,false,Rx,0,8,10,64,00,00,00,14,02,04,
5808805,0000054A,false,Rx,0,8,9E,00,70,06,22,00,00,3D,
5809018,000001DA,false,Rx,0,8,C1,64,18,00,00,01,00,2F,
5809831,0000054B,false,Rx,0,8,00,48,88,12,0C,00,00,00,
5810821,0000054C,false,Rx,0,8,8E,66,40,00,00,40,7C,00,
5811517,000001DB,false,Rx,0,8,FF,80,C0,6A,00,00,03,26,
5811730,000001DC,false,Rx,0,8,6E,04,0F,FD,08,C0,C7,92,
5811944,0000054F,false,Rx,0,8,44,01,00,00,07,40,88,33,
5816399,0000011A,false,Rx,0,8,01,40,80,55,40,00,02,C7,
5817390,000001D4,false,Rx,0,8,F7,07,00,00,C7,46,70,91,
5817663,000001F2,false,Rx,0,8,10,64,00,00,00,14,03,05,
5817876,00000284,false,Rx,0,8,00,00,00,00,00,00,33,B9,
5818152,00000380,false,Rx,0,8,02,04,10,21,00,00,00,05,
5818433,000005BF,false,Rx,0,8,00,00,00,00,20,00,00,23,
5818882,000001DA,false,Rx,0,8,C1,64,18,00,00,01,01,AA,
5819155,0000056E,false,Rx,0,1,46,00,00,00,00,00,00,00,
5821487,000001DB,false,Rx,0,8,FF,A0,C0,6A,00,00,00,7D,
5821759,000001DC,false,Rx,0,8,6E,04,0F,FD,0C,C4,C0,36,
5826462,0000011A,false,Rx,0,8,01,40,80,AA,80,00,03,D1,
5827627,000001D4,false,Rx,0,8,F7,07,00,00,07,46,70,5D,
5827840,000001F2,false,Rx,0,8,10,64,00,00,00,14,00,02,
5828058,0000050C,false,Rx,0,6,00,00,00,00,5D,C8,00,00,
5828868,000001DA,false,Rx,0,8,C1,64,18,00,00,01,02,A0,
5831469,000001DB,false,Rx,0,8,FF,A0,C0,6A,00,00,01,F8,
5831741,000001DC,false,Rx,0,8,6E,04,0F,FD,01,08,D1,D6,
5835712,0000011A,false,Rx,0,8,01,40,80,AA,C0,00,00,1C,
5837831,000001D4,false,Rx,0,8,F7,07,00,00,47,46,70,9A,
5838045,000001F2,false,Rx,0,8,10,64,00,00,00,14,01,03,
5838319,00000284,false,Rx,0,8,00,00,00,00,00,00,34,BA,
5838827,000001DA,false,Rx,0,8,C1,64,18,00,00,01,03,25,
5849531,000001DB,false,Rx,0,8,FF,A0,C0,6A,00,00,02,F2,
5849595,000001DC,false,Rx,0,8,6E,04,0F,FD,04,D8,C6,DD,
5849658,0000011A,false,Rx,0,8,01,40,80,55,00,00,01,0A,
5849721,000001D4,false,Rx,0,8,F7,07,00,00,87,46,70,56,
5849785,000001F2,false,Rx,0,8,10,64,00,00,00,14,02,04,
5849848,0000050A,false,Rx,0,6,04,02,00,1D,00,20,00,00,
5849911,000001DA,false,Rx,0,8,C1,64,18,00,00,01,00,2F,
5851505,000001DB,false,Rx,0,8,FF,A0,C0,6A,00,00,03,77,
5851718,000001DC,false,Rx,0,8,6E,04,0F,FD,08,C0,C7,92,
5856161,0000011A,false,Rx,0,8,01,40,80,55,40,00,02,C7,
5858289,000001D4,false,Rx,0,8,F7,07,00,00,C7,46,70,91,
5858561,000001F2,false,Rx,0,8,10,64,00,00,00,14,03,05,
5858774,00000284,false,Rx,0,8,00,00,00,00,00,00,35,BB,
5859049,000001DA,false,Rx,0,8,C1,64,18,00,00,01,01,AA,
5861484,000001DB,false,Rx,0,8,FF,A0,C0,6A,00,00,00,7D,
5861756,000001DC,false,Rx,0,8,6E,04,0F,FD,0C,C4,C0,36,
5866446,0000011A,false,Rx,0,8,01,40,80,AA,80,00,03,D1,
5868510,000001D4,false,Rx,0,8,F7,07,00,00,07,46,70,5D,
5868783,000001F2,false,Rx,0,8,10,64,00,00,00,14,00,02,
5869005,000001DA,false,Rx,0,8,C1,64,18,00,00,01,02,A0,
5869220,0000050B,false,Rx,0,6,00,00,00,C0,00,60,00,00,
5871467,000001DB,false,Rx,0,8,FF,A0,C0,6A,00,00,01,F8,
5871739,000001DC,false,Rx,0,8,6E,04,0F,FD,01,08,D1,D6,
5875652,0000011A,false,Rx,0,8,01,40,80,AA,C0,00,00,1C,
5878787,000001D4,false,Rx,0,8,F7,07,00,00,47,46,70,9A,
5879063,000001DA,false,Rx,0,8,C1,64,18,00,00,01,03,25,
5879284,000001F2,false,Rx,0,8,10,64,00,00,00,14,01,03,
5879497,00000284,false,Rx,0,8,00,00,00,00,00,00,36,BC,
5881502,000001DB,false,Rx,0,8,FF,A0,C0,6A,00,00,02,F2,
5881716,000001DC,false,Rx,0,8,6E,04,0F,FD,04,D8,C6,DD,
5886433,0000011A,false,Rx,0,8,01,40,80,55,00,00,01,0A,
5888848,000001DA,false,Rx,0,8,C1,64,18,00,00,01,00,2F,
5889065,000001D4,false,Rx,0,8,F7,07,00,00,87,46,70,56,
5889346,000001F2,false,Rx,0,8,10,64,00,00,00,14,02,04,
5889560,0000055A,false,Rx,0,8,00,44,41,00,5F,43,5B,48,
5891681,000001DB,false,Rx,0,8,FF,A0,C0,6A,00,00,03,77,
5891894,000001DC,false,Rx,0,8,6E,04,0F,FD,08,C0,C7,92,
5892109,0000055B,false,Rx,0,8,AB,00,55,00,FF,C0,13,F6,
5896135,0000011A,false,Rx,0,8,01,40,80,55,40,00,02,C7,
5898856,000001DA,false,Rx,0,8,C1,64,18,00,00,01,01,AA,
5899318,000001D4,false,Rx,0,8,F7,07,00,00,C7,46,70,91,
5899531,000001F2,false,Rx,0,8,10,64,00,00,00,14,03,05,
5906678,00000284,false,Rx,0,8,00,00,00,00,00,00,37,BD,
5906742,000001DB,false,Rx,0,8,FF,A0,C0,6A,00,00,00,7D,
5906806,000001DC,false,Rx,0,8,6E,04,0F,FD,0C,C4,C0,36,
5906869,0000011A,false,Rx,0,8,01,40,80,AA,80,00,03,D1,
5908810,000001DA,false,Rx,0,8,C1,64,18,00,00,01,02,A0,
5909085,0000054A,false,Rx,0,8,10,00,70,06,22,00,00,3D,
5909483,000001D4,false,Rx,0,8,F7,07,00,00,07,46,70,5D,
5909697,000001F2,false,Rx,0,8,10,64,00,00,00,14,00,02,
5909969,0000054B,false,Rx,0,8,00,48,88,12,0C,00,00,00,
5910904,0000054C,false,Rx,0,8,8E,66,40,00,00,40,7C,00,
5911481,000001DB,false,Rx,0,8,FF,A0,C0,6A,00,00,01,F8,
5911694,000001DC,false,Rx,0,8,6E,04,0F,FD,01,08,D1,D6,
5911966,0000054F,false,Rx,0,8,44,01,00,00,07,80,88,33,
5915700,0000011A,false,Rx,0,8,01,40,80,AA,C0,00,00,1C,
5918242,00000380,false,Rx,0,8,02,04,10,21,00,00,00,16,
5918515,000005BF,false,Rx,0,8,00,00,00,00,20,00,00,34,
5918847,000001DA,false,Rx,0,8,C1,64,18,00,00,01,03,25,
5919119,0000056E,false,Rx,0,1,46,00,00,00,00,00,00,00,
5919871,000001D4,false,Rx,0,8,F7,07,00,00,47,46,70,9A,
5920090,000001F2,false,Rx,0,8,10,64,00,00,00,14,01,03,
5920371,00000284,false,Rx,0,8,00,00,00,00,00,00,38,BE,
5921477,000001DB,false,Rx,0,8,FF,A0,C0,6A,00,00,02,F2,
5921690,000001DC,false,Rx,0,8,6E,04,0F,FD,04,D8,C6,DD,
5926406,0000011A,false,Rx,0,8,01,40,80,55,00,00,01,0A,
5928821,000001DA,false,Rx,0,8,C1,64,18,00,00,01,00,2F,
5929988,000001D4,false,Rx,0,8,F7,07,00,00,87,46,70,56,
5930271,000001F2,false,Rx,0,8,10,64,00,00,00,14,02,04,
5930485,0000050C,false,Rx,0,6,00,00,00,01,B2,31,00,00,
5931474,000001DB,false,Rx,0,8,FF,A0,C0,6A,00,00,03,77,
5931687,000001DC,false,Rx,0,8,6E,04,0F,FD,08,C0,C7,92,
5936130,0000011A,false,Rx,0,8,01,40,80,55,40,00,02,C7,
5938849,000001DA,false,Rx,0,8,C1,64,18,00,00,01,01,AA,
5940261,000001D4,false,Rx,0,8,F7,07,00,00,C7,46,70,91,
5940475,000001F2,false,Rx,0,8,10,64,00,00,00,14,03,05,
5940748,00000284,false,Rx,0,8,00,00,00,00,00,00,39,BF,
5941502,000001DB,false,Rx,0,8,FF,A0,C0,6A,00,00,00,7D,
5941715,000001DC,false,Rx,0,8,6E,04,0F,FD,0C,C4,C0,36,
5946403,0000011A,false,Rx,0,8,01,40,80,AA,80,00,03,D1,
5948818,000001DA,false,Rx,0,8,C1,64,18,00,00,01,02,A0,
5950467,000001D4,false,Rx,0,8,F7,07,00,00,07,46,70,5D,
5950740,000001F2,false,Rx,0,8,10,64,00,00,00,14,00,02,
5950952,0000050A,false,Rx,0,6,04,22,00,1D,00,20,00,00,
5951471,000001DB,false,Rx,0,8,FF,A0,C0,6A,00,00,01,F8,
5951743,000001DC,false,Rx,0,8,6E,04,0F,FD,01,08,D1,D6,
5955594,0000011A,false,Rx,0,8,01,40,80,AA,C0,00,00,1C,
5964341,000001DA,false,Rx,0,8,C1,64,18,00,00,01,03,25,
5964406,000001D4,false,Rx,0,8,F7,07,00,00,47,46,70,9A,
5964469,000001F2,false,Rx,0,8,10,64,00,00,00,14,01,03,
5964532,00000284,false,Rx,0,8,00,00,00,00,00,00,3A,C0,
5964595,000001DB,false,Rx,0,8,FF,A0,C0,6A,00,00,02,F2,
5964658,000001DC,false,Rx,0,8,6E,04,0F,FD,04,D8,C6,DD,
5966365,0000011A,false,Rx,0,8,01,40,80,55,00,00,01,0A,
5968839,000001DA,false,Rx,0,8,C1,64,18,00,00,01,00,2F,
5970967,000001D4,false,Rx,0,8,F7,07,00,00,87,46,70,56,
5971182,000001F2,false,Rx,0,8,10,64,00,00,00,14,02,04,
5971404,0000050B,false,Rx,0,6,00,00,00,C0,00,60,00,00,
5971677,000001DB,false,Rx,0,8,FF,A0,C0,6A,00,00,03,77,
5971889,000001DC,false,Rx,0,8,6E,04,0F,FD,08,C0,C7,92,
5976097,0000011A,false,Rx,0,8,01,40,80,55,40,00,02,C7,
5978818,000001DA,false,Rx,0,8,C1,64,18,00,00,01,01,AA,
5981243,000001D4,false,Rx,0,8,F7,07,00,00,C7,46,70,91,
5981456,000001F2,false,Rx,0,8,10,64,00,00,00,14,03,05,
5981728,000001DB,false,Rx,0,8,FF,A0,C0,6A,00,00,00,7D,
5981942,000001DC,false,Rx,0,8,6E,04,0F,FD,0C,C4,C0,36,
5982158,00000284,false,Rx,0,8,00,00,00,00,00,00,3B,C1,
5986387,0000011A,false,Rx,0,8,01,40,80,AA,80,00,03,D1,
5988805,000001DA,false,Rx,0,8,C1,64,18,00,00,01,02,A0,
5989079,0000055A,false,Rx,0,8,00,44,41,00,5F,43,5B,48,
5991446,000001D4,false,Rx,0,8,F7,07,00,00,07,46,70,5D,
5991659,000001DB,false,Rx,0,8,FF,A0,C0,6A,00,00,01,F8,
5991932,000001DC,false,Rx,0,8,6E,04,0F,FD,01,08,D1,D6,
5992149,000001F2,false,Rx,0,8,10,64,00,00,00,14,00,02,
5992430,0000055B,false,Rx,0,8,AB,00,55,00,FF,C0,10,FC,
5995622,0000011A,false,Rx,0,8,01,40,80,AA,C0,00,00,1C,
5998818,000001DA,false,Rx,0,8,C1,64,18,00,00,01,03,25,
6001478,000001DB,false,Rx,0,8,FF,A0,C0,6A,00,00,02,F2,
6001692,000001DC,false,Rx,0,8,6E,04,0F,FD,04,D8,C6,DD,
6001964,000001D4,false,Rx,0,8,F7,07,00,00,47,46,70,9A,
6002180,000001F2,false,Rx,0,8,10,64,00,00,00,14,01,03,
6002459,00000284,false,Rx,0,8,00,00,00,00,00,00,3C,C2,
6006373,0000011A,false,Rx,0,8,01,40,80,55,00,00,01,0A,
6008849,000001DA,false,Rx,0,8,C1,64,18,00,00,01,00,2F,
6009063,0000054A,false,Rx,0,8,9E,00,70,06,22,00,00,3D,
6009934,0000054B,false,Rx,0,8,00,48,88,12,0C,00,00,00,
6010982,0000054C,false,Rx,0,8,8E,66,40,00,00,40,7C,00,
6011500,000001DB,false,Rx,0,8,FF,A0,C0,6A,00,00,03,77,
6011714,000001DC,false,Rx,0,8,6E,04,0F,FD,08,C0,C7,92,
6011928,000001D4,false,Rx,0,8,F7,07,00,00,87,46,70,56,
6012202,000001F2,false,Rx,0,8,10,64,00,00,00,14,02,04,
6012424,0000054F,false,Rx,0,8,44,01,00,00,07,C0,88,33,
6022097,0000011A,false,Rx,0,8,01,40,80,55,40,00,02,C7,
6022161,00000380,false,Rx,0,8,02,04,10,21,00,00,00,27,
6022264,000005BF,false,Rx,0,8,00,00,00,00,20,00,00,01,
6022327,000001DA,false,Rx,0,8,C1,64,18,00,00,01,01,AA,
6022390,0000056E,false,Rx,0,1,46,00,00,00,00,00,00,00,
6022485,000001DB,false,Rx,0,8,FF,A0,C0,6A,00,00,00,7D,
6022549,000001DC,false,Rx,0,8,6E,04,0F,FD,0C,C4,C0,36,
6022612,000001D4,false,Rx,0,8,F7,07,00,00,C7,46,70,91,
6022675,000001F2,false,Rx,0,8,10,64,00,00,00,14,03,05,
6022771,00000284,false,Rx,0,8,00,00,00,00,00,00,3D,C3,
6026347,0000011A,false,Rx,0,8,01,40,80,AA,80,00,03,D1,
6028838,000001DA,false,Rx,0,8,C1,64,18,00,00,01,02,A0,
6031502,000001DB,false,Rx,0,8,FF,A0,C0,6A,00,00,01,F8,
6031716,000001DC,false,Rx,0,8,6E,04,0F,FD,01,08,D1,D6,
6032410,000001D4,false,Rx,0,8,F7,07,00,00,07,46,70,5D,
6032683,000001F2,false,Rx,0,8,10,64,00,00,00,14,00,02,
6032897,0000050C,false,Rx,0,6,00,00,00,02,B2,0D,00,00,
6035557,0000011A,false,Rx,0,8,01,40,80,AA,C0,00,00,1C,
6038810,000001DA,false,Rx,0,8,C1,64,18,00,00,01,03,25,
6041473,000001DB,false,Rx,0,8,FF,A0,C0,6A,00,00,02,F2,
6041686,000001DC,false,Rx,0,8,6E,04,0F,FD,04,D8,C6,DD,
6042675,000001D4,false,Rx,0,8,F7,07,00,00,47,46,70,9A,
6042889,000001F2,false,Rx,0,8,10,64,00,00,00,14,01,03,
6043163,00000284,false,Rx,0,8,00,00,00,00,00,00,3E,C4,
6046322,0000011A,false,Rx,0,8,01,40,80,55,00,00,01,0A,
6048799,000001DA,false,Rx,0,8,C1,64,18,00,00,01,00,2F,
6051492,000001DB,false,Rx,0,8,FF,A0,C0,6A,00,00,03,77,
6051705,000001DC,false,Rx,0,8,6E,04,0F,FD,08,C0,C7,92,
6052871,000001D4,false,Rx,0,8,F7,07,00,00,87,46,70,56,
6053149,000001F2,false,Rx,0,8,10,64,00,00,00,14,02,04,
6053370,0000050A,false,Rx,0,6,04,42,00,1D,80,20,00,00,
6056022,0000011A,false,Rx,0,8,01,40,80,55,40,00,02,C7,
6058805,000001DA,false,Rx,0,8,C1,64,18,00,00,01,01,AA,
6061480,000001DB,false,Rx,0,8,FF,A0,C0,6A,00,00,00,7D,
6061694,000001DC,false,Rx,0,8,6E,04,0F,FD,0C,C4,C0,36,
6063159,000001D4,false,Rx,0,8,F7,07,00,00,C7,46,70,91,
6063381,000001F2,false,Rx,0,8,10,64,00,00,00,14,03,05,
6063653,00000284,false,Rx,0,8,00,00,00,00,00,00,3F,C5,
6066315,0000011A,false,Rx,0,8,01,40,80,AA,80,00,03,D1,
6068789,000001DA,false,Rx,0,8,C1,64,18,00,00,01,02,A0,
6071464,000001DB,false,Rx,0,8,FF,A0,C0,6A,00,00,01,F8,
6071736,000001DC,false,Rx,0,8,6E,04,0F,FD,01,08,D1,D6,
6079152,000001D4,false,Rx,0,8,F7,07,00,00,07,46,70,5D,
6079216,000001F2,false,Rx,0,8,10,64,00,00,00,14,00,02,
6079287,0000050B,false,Rx,0,6,00,00,00,C0,00,60,00,00,
6079350,0000011A,false,Rx,0,8,01,40,80,AA,C0,00,00,1C,
6079413,00000380,false,Rx,0,8,02,04,10,21,00,00,00,B0,
6079476,000001DA,false,Rx,0,8,C1,64,18,00,00,01,03,25,
6081478,000001DB,false,Rx,0,8,FF,A0,C0,6A,00,00,02,F2,
6081691,000001DC,false,Rx,0,8,6E,04,0F,FD,04,D8,C6,DD,
6083693,000001D4,false,Rx,0,8,F7,07,00,00,47,46,70,9A,
6083906,000001F2,false,Rx,0,8,10,64,00,00,00,14,01,03,
6084129,00000284,false,Rx,0,8,00,00,00,00,00,00,40,C6,
6086317,0000011A,false,Rx,0,8,01,40,80,55,00,00,01,0A,
6088792,000001DA,false,Rx,0,8,C1,64,18,00,00,01,00,2F,
6089067,0000055A,false,Rx,0,8,00,44,41,00,5F,43,5B,48,
6091669,000001DB,false,Rx,0,8,FF,C0,C0,6A,00,00,03,84,
6091882,000001DC,false,Rx,0,8,6E,04,0F,FD,08,C0,C7,92,
6092098,0000055B,false,Rx,0,8,AB,00,55,00,FF,C0,11,79,
6093864,000001D4,false,Rx,0,8,F7,07,00,00,87,46,70,56,
6094139,000001F2,false,Rx,0,8,10,64,00,00,00,18,02,08,
6096023,0000011A,false,Rx,0,8,01,40,80,55,40,00,02,C7,
6098805,000001DA,false,Rx,0,8,C1,64,18,00,00,01,01,AA,
6101467,000001DB,false,Rx,0,8,FF,C0,C0,6A,00,00,00,8E,
6101680,000001DC,false,Rx,0,8,6E,04,0F,FD,0C,C4,C0,36,
6104161,000001D4,false,Rx,0,8,F7,07,00,00,C7,46,30,17,
6104382,000001F2,false,Rx,0,8,10,64,00,00,00,1E,03,0F,
6104595,00000284,false,Rx,0,8,00,00,00,00,00,00,41,C7,
6106301,0000011A,false,Rx,0,8,01,40,80,AA,80,00,03,D1,
6108834,000001DA,false,Rx,0,8,C1,64,18,00,00,01,02,A0,
6109049,0000054A,false,Rx,0,8,10,00,70,06,22,00,00,3D,
6110041,0000054B,false,Rx,0,8,00,48,88,12,0C,00,00,00,
6111030,0000054C,false,Rx,0,8,8E,66,40,00,00,40,7C,00,
6111488,000001DB,false,Rx,0,8,FF,C0,C0,6A,00,00,01,0B,
6111701,000001DC,false,Rx,0,8,6E,04,0F,FD,01,08,D1,D6,
6112038,0000054F,false,Rx,0,8,44,01,00,00,07,00,88,33,
6114404,000001D4,false,Rx,0,8,F7,07,00,00,07,46,30,DB,
6114676,000001F2,false,Rx,0,8,10,64,00,00,00,1E,00,0C,
6114889,00000284,false,Rx,0,8,00,00,00,00,00,00,42,C8,
6115524,0000011A,false,Rx,0,8,01,40,80,AA,C0,00,00,1C,
6118483,00000380,false,Rx,0,8,02,04,10,21,00,00,00,8D,
6118696,000005BF,false,Rx,0,8,00,00,00,00,28,00,00,1A,
6118967,000001DA,false,Rx,0,8,C1,64,18,00,00,01,03,25,
6119249,0000056E,false,Rx,0,1,46,00,00,00,00,00,00,00,
6121488,000001DB,false,Rx,0,8,FF,A0,C0,6A,00,00,02,F2,
6121702,000001DC,false,Rx,0,8,6E,04,0F,FD,04,D8,C6,DD,
6124659,000001D4,false,Rx,0,8,F7,07,00,00,47,46,30,1C,
6124932,000001F2,false,Rx,0,8,10,64,00,00,00,1E,01,0D,
6126280,0000011A,false,Rx,0,8,01,40,80,55,00,00,01,0A,
6128816,000001DA,false,Rx,0,8,C1,64,18,00,00,01,00,2F,
6137424,000001DB,false,Rx,0,8,FF,C0,C0,6A,00,00,03,84,
6137489,000001DC,false,Rx,0,8,6E,04,0F,FD,08,C0,C7,92,
6137552,000001D4,false,Rx,0,8,F7,07,00,00,87,46,30,D0,
6137615,000001F2,false,Rx,0,8,10,64,00,00,00,1E,02,0E,
6137678,00000284,false,Rx,0,8,00,00,00,00,00,00,43,C9,
6137741,0000050C,false,Rx,0,6,00,00,00,03,B2,9A,00,00,
6137804,0000011A,false,Rx,0,8,01,40,80,55,40,00,02,C7,
6138793,000001DA,false,Rx,0,8,C1,64,18,00,00,01,01,AA,
6141457,000001DB,false,Rx,0,8,FF,C0,C0,6A,00,00,00,8E,
6141670,000001DC,false,Rx,0,8,6E,04,0F,FD,0C,C4,C0,36,
6145102,000001D4,false,Rx,0,8,F7,07,00,00,C7,46,30,17,
6145324,000001F2,false,Rx,0,8,10,64,00,00,00,1E,03,0F,
6145597,000005A9,false,Rx,0,8,7A,17,20,10,83,E0,00,00,
6146292,0000011A,false,Rx,0,8,01,40,80,AA,80,00,03,D1,
6148824,000001DA,false,Rx,0,8,C1,64,18,00,00,01,02,A0,
6151483,000001DB,false,Rx,0,8,FF,A0,C0,6A,00,00,01,F8,
6151696,000001DC,false,Rx,0,8,6E,04,0F,FD,01,08,D1,D6,
6155374,000001D4,false,Rx,0,8,F7,07,00,00,07,46,30,DB,
6155647,0000011A,false,Rx,0,8,01,40,80,AA,C0,00,00,1C,
6155860,000001F2,false,Rx,0,8,10,64,00,00,00,1E,00,0C,
6156135,00000284,false,Rx,0,8,00,00,00,00,00,00,44,CA,
6156297,0000050A,false,Rx,0,6,85,62,A0,1D,80,20,00,00,
6158770,000001DA,false,Rx,0,8,C1,64,18,00,00,01,03,25,
6161433,000001DB,false,Rx,0,8,FF,A0,C0,6A,00,00,02,F2,
6161705,000001DC,false,Rx,0,8,6E,04,0F,FD,04,D8,C6,DD,
6165615,000001D4,false,Rx,0,8,F7,07,00,00,47,46,30,1C,
6165828,000001F2,false,Rx,0,8,10,64,00,00,00,1E,01,0D,
6166287,0000011A,false,Rx,0,8,01,40,80,55,00,00,01,0A,
6168821,000001DA,false,Rx,0,8,C1,64,18,00,00,01,00,2F,
6171432,000001DB,false,Rx,0,8,FF,C0,C0,6A,00,00,03,84,
6171704,000001DC,false,Rx,0,8,6E,04,0F,FD,08,C0,C7,92,
6175849,000001D4,false,Rx,0,8,F7,07,00,00,87,46,30,D0,
6176123,0000011A,false,Rx,0,8,01,40,80,55,40,00,02,C7,
6176345,000001F2,false,Rx,0,8,10,64,00,00,00,1E,02,0E,
6176559,00000284,false,Rx,0,8,00,00,00,00,00,00,45,CB,
6176771,0000050B,false,Rx,0,6,00,00,02,C0,00,60,00,00,
6178772,000001DA,false,Rx,0,8,C1,64,18,00,00,01,01,AA,
6181432,000001DB,false,Rx,0,8,FF,A0,C0,6A,00,00,00,7D,
6181705,000001DC,false,Rx,0,8,6E,04,0F,FD,0C,C4,C0,36,
6186040,000001D4,false,Rx,0,8,F7,07,00,00,C7,46,30,17,
6186320,0000011A,false,Rx,0,8,01,40,80,AA,80,00,03,D1,
6186534,000001F2,false,Rx,0,8,10,64,00,00,00,1E,03,0F,
6194496,000001DA,false,Rx,0,8,C1,64,18,00,00,01,02,A0,
6194561,0000055A,false,Rx,0,8,00,44,41,00,5F,43,5B,48,
6194624,000001DB,false,Rx,0,8,FF,A0,C0,6A,00,00,01,F8,
6194687,000001DC,false,Rx,0,8,6E,04,0F,FD,01,08,D1,D6,
6194750,0000055B,false,Rx,0,8,AB,00,55,00,FF,C0,12,73,
6195505,0000011A,false,Rx,0,8,01,40,80,AA,C0,00,00,1C,
6196377,000001D4,false,Rx,0,8,F7,07,00,00,07,46,30,DB,
6196591,000001F2,false,Rx,0,8,10,64,00,00,00,1E,00,0C,
6196864,00000284,false,Rx,0,8,00,00,00,00,00,00,46,CC,
6198805,000001DA,false,Rx,0,8,C1,64,18,00,00,01,03,25,
6201758,000001DB,false,Rx,0,8,FF,A0,C0,6A,00,00,02,F2,
6202035,000001DC,false,Rx,0,8,6E,04,0F,FD,04,D8,C6,DD,
6202257,000005BC,false,Rx,0,8,25,03,29,39,90,06,21,4A,
6202470,000005C0,false,Rx,0,8,C0,72,72,00,66,D0,00,00,
6206261,0000011A,false,Rx,0,8,01,40,80,55,00,00,01,0A,
6206592,000001D4,false,Rx,0,8,F7,07,00,00,47,46,30,1C,
6206806,000001F2,false,Rx,0,8,10,64,00,00,00,1E,01,0D,
6208811,000001DA,false,Rx,0,8,C1,64,18,00,00,01,00,2F,
6209146,0000054A,false,Rx,0,8,9E,00,70,06,22,00,00,3D,
6210134,0000054B,false,Rx,0,8,00,48,88,12,0C,00,00,00,
6211127,0000054C,false,Rx,0,8,8E,66,40,00,00,40,7C,00,
6211467,000001DB,false,Rx,0,8,FF,A0,C0,6A,00,00,03,77,
6211680,000001DC,false,Rx,0,8,6E,04,0F,FD,08,C0,C7,92,
6212133,0000054F,false,Rx,0,8,44,01,00,00,07,40,88,33,
6215923,0000011A,false,Rx,0,8,01,40,80,55,40,00,02,C7,
6216911,000001D4,false,Rx,0,8,F7,07,00,00,87,46,30,D0,
6217130,000001F2,false,Rx,0,8,10,64,00,00,00,1E,02,0E,
6217351,00000284,false,Rx,0,8,00,00,00,00,00,00,47,CD,
6217565,000005B9,false,Rx,0,5,00,78,51,4A,28,00,00,00,
6218557,00000380,false,Rx,0,8,02,04,10,21,00,00,00,9E,
6218829,000005BF,false,Rx,0,8,00,00,00,00,28,00,00,2B,
6219044,000001DA,false,Rx,0,8,C1,64,18,00,00,01,01,AA,
6219323,0000056E,false,Rx,0,1,46,00,00,00,00,00,00,00,
6221445,000001DB,false,Rx,0,8,FF,A0,C0,6A,00,00,00,7D,
6221717,000001DC,false,Rx,0,8,6E,04,0F,FD,0C,C4,C0,36,
6226220,0000011A,false,Rx,0,8,01,40,80,AA,80,00,03,D1,
6227093,000001D4,false,Rx,0,8,F7,07,00,00,C7,46,30,17,
6227315,000001F2,false,Rx,0,8,10,64,00,00,00,1E,03,0F,
6228776,000001DA,false,Rx,0,8,C1,64,18,00,00,01,02,A0,
6231460,000001DB,false,Rx,0,8,FF,A0,C0,6A,00,00,01,F8,
6231673,000001DC,false,Rx,0,8,6E,04,0F,FD,01,08,D1,D6,
6235479,0000011A,false,Rx,0,8,01,40,80,AA,C0,00,00,1C,
6237303,000001D4,false,Rx,0,8,F7,07,00,00,07,46,30,DB,
6237576,000001F2,false,Rx,0,8,10,64,00,00,00,1E,00,0C,
6237789,00000284,false,Rx,0,8,00,00,00,00,00,00,48,CE,
6238003,0000050C,false,Rx,0,6,00,00,00,00,B2,A6,00,00,
6238815,000001DA,false,Rx,0,8,C1,64,18,00,00,01,03,25,
6241475,000001DB,false,Rx,0,8,FF,A0,C0,6A,00,00,02,F2,
6241689,000001DC,false,Rx,0,8,6E,04,0F,FD,04,D8,C6,DD,
6252900,0000011A,false,Rx,0,8,01,40,80,55,00,00,01,0A,
6252964,000001D4,false,Rx,0,8,F7,07,00,00,47,46,30,1C,
6253029,000001F2,false,Rx,0,8,10,64,00,00,00,1E,01,0D,
6253092,000001DA,false,Rx,0,8,C1,64,18,00,00,01,00,2F,
6253156,000001DB,false,Rx,0,8,FF,A0,C0,6A,00,00,03,77,
6253219,000001DC,false,Rx,0,8,6E,04,0F,FD,08,C0,C7,92,
6255939,0000011A,false,Rx,0,8,01,40,80,55,40,00,02,C7,
6257823,000001D4,false,Rx,0,8,F7,07,00,00,87,46,30,D0,
6258038,000001F2,false,Rx,0,8,10,64,00,00,00,1E,02,0E,
6258312,00000284,false,Rx,0,8,00,00,00,00,00,00,49,CF,
6258466,0000050A,false,Rx,0,6,85,02,A0,1D,80,20,00,00,
6258798,000001DA,false,Rx,0,8,C1,64,18,00,00,01,01,AA,
6261477,000001DB,false,Rx,0,8,FF,A0,C0,6A,00,00,00,7D,
6261689,000001DC,false,Rx,0,8,6E,04,0F,FD,0C,C4,C0,36,
6266192,0000011A,false,Rx,0,8,01,40,80,AA,80,00,03,D1,
6268015,000001D4,false,Rx,0,8,F7,07,00,00,C7,46,30,17,
6268237,000001F2,false,Rx,0,8,10,64,00,00,00,1E,03,0F,
6268804,000001DA,false,Rx,0,8,C1,64,18,00,00,01,02,A0,
6271476,000001DB,false,Rx,0,8,FF,A0,C0,6A,00,00,01,F8,
6271689,000001DC,false,Rx,0,8,6E,04,0F,FD,01,08,D1,D6,
6275424,0000011A,false,Rx,0,8,01,40,80,AA,C0,00,00,1C,
6278313,000001D4,false,Rx,0,8,F7,07,00,00,07,46,30,DB,
6278526,000001F2,false,Rx,0,8,10,64,00,00,00,1E,00,0C,
6278798,00000284,false,Rx,0,8,00,00,00,00,00,00,4A,D0,
6279011,000001DA,false,Rx,0,8,C1,64,18,00,00,01,03,25,
6279234,0000050B,false,Rx,0,6,00,00,02,C0,00,60,00,00,
6281470,000001DB,false,Rx,0,8,FF,A0,C0,6A,00,00,02,F2,
6281683,000001DC,false,Rx,0,8,6E,04,0F,FD,04,D8,C6,DD,
6286204,0000011A,false,Rx,0,8,01,40,80,55,00,00,01,0A,
6288510,000001D4,false,Rx,0,8,F7,07,00,00,47,46,30,1C,
6288724,000001F2,false,Rx,0,8,10,64,00,00,00,1E,01,0D,
6288995,000001DA,false,Rx,0,8,C1,64,18,00,00,01,00,2F,
6289211,0000055A,false,Rx,0,8,00,44,41,00,5F,43,5B,48,
6291634,000001DB,false,Rx,0,8,FF,A0,C0,6A,00,00,03,77,
6291848,000001DC,false,Rx,0,8,6E,04,0F,FD,08,C0,C7,92,
6292123,0000055B,false,Rx,0,8,AB,00,55,00,FF,C0,13,F6,
6295915,0000011A,false,Rx,0,8,01,40,80,55,40,00,02,C7,
6298759,000001DA,false,Rx,0,8,C1,64,18,00,00,01,01,AA,
6299035,000001D4,false,Rx,0,8,F7,07,00,00,87,46,30,D0,
6299285,000001F2,false,Rx,0,8,10,64,00,00,00,1E,02,0E,
6299499,00000284,false,Rx,0,8,00,00,00,00,00,00,4B,D1,
6301445,000001DB,false,Rx,0,8,FF,A0,C0,6A,00,00,00,7D,
6301658,000001DC,false,Rx,0,8,6E,04,0F,FD,0C,C4,C0,36,
6310268,0000011A,false,Rx,0,8,01,40,80,AA,80,00,03,D1,
6310332,000001DA,false,Rx,0,8,C1,64,18,00,00,01,02,A0,
6310395,000001D4,false,Rx,0,8,F7,07,00,00,C7,46,30,17,
6310458,000001F2,false,Rx,0,8,10,64,00,00,00,1E,03,0F,
6310521,0000054A,false,Rx,0,8,10,00,70,06,22,00,00,3D,
6310585,0000054B,false,Rx,0,8,00,48,88,12,0C,00,00,00,
6311214,0000054C,false,Rx,0,8,8E,66,40,00,00,40,7C,00,
6311436,000001DB,false,Rx,0,8,FF,A0,C0,6A,00,00,01,F8,
6311708,000001DC,false,Rx,0,8,6E,04,0F,FD,01,08,D1,D6,
6312158,0000054F,false,Rx,0,8,44,01,00,00,07,80,88,33,
6315475,0000011A,false,Rx,0,8,01,40,80,AA,C0,00,00,1C,
6318669,00000380,false,Rx,0,8,02,04,10,21,00,00,00,AF,
6318882,000001DA,false,Rx,0,8,C1,64,18,00,00,01,03,25,
6319157,000005BF,false,Rx,0,8,00,00,00,00,28,00,00,3C,
6319378,000001D4,false,Rx,0,8,F7,07,00,00,07,46,30,DB,
6319650,000001F2,false,Rx,0,8,10,64,00,00,00,1E,00,0C,
6319863,00000284,false,Rx,0,8,00,00,00,00,00,00,4C,D2,
6319958,0000056E,false,Rx,0,1,46,00,00,00,00,00,00,00,
6321432,000001DB,false,Rx,0,8,FF,A0,C0,6A,00,00,02,F2,
6321645,000001DC,false,Rx,0,8,6E,04,0F,FD,04,D8,C6,DD,
6326149,0000011A,false,Rx,0,8,01,40,80,55,00,00,01,0A,
6328749,000001DA,false,Rx,0,8,C1,64,18,00,00,01,00,2F,
6329561,000001D4,false,Rx,0,8,F7,07,00,00,47,46,30,1C,
6329774,000001F2,false,Rx,0,8,10,64,00,00,00,1E,01,0D,
6331422,000001DB,false,Rx,0,8,FF,A0,C0,6A,00,00,03,77,
6331695,000001DC,false,Rx,0,8,6E,04,0F,FD,08,C0,C7,92,
6335873,0000011A,false,Rx,0,8,01,40,80,55,40,00,02,C7,
6338770,000001DA,false,Rx,0,8,C1,64,18,00,00,01,01,AA,
6339760,000001D4,false,Rx,0,8,F7,07,00,00,87,46,30,D0,
6339973,000001F2,false,Rx,0,8,10,64,00,00,00,1E,02,0E,
6340256,00000284,false,Rx,0,8,00,00,00,00,00,00,4D,D3,
6340469,0000050C,false,Rx,0,6,00,00,00,01,B2,31,00,00,
6341458,000001DB,false,Rx,0,8,FF,A0,C0,6A,00,00,00,7D,
6341671,000001DC,false,Rx,0,8,6E,04,0F,FD,0C,C4,C0,36,
6346173,0000011A,false,Rx,0,8,01,40,80,AA,80,00,03,D1,
6348772,000001DA,false,Rx,0,8,C1,64,18,00,00,01,02,A0,
6349939,000001D4,false,Rx,0,8,F7,07,00,00,C7,46,30,17,
6350214,000001F2,false,Rx,0,8,10,64,00,00,00,1E,03,0F,
6351449,000001DB,false,Rx,0,8,FF,A0,C0,6A,00,00,01,F8,
6351662,000001DC,false,Rx,0,8,6E,04,0F,FD,01,08,D1,D6,
6355399,0000011A,false,Rx,0,8,01,40,80,AA,C0,00,00,1C,
6358769,000001DA,false,Rx,0,8,C1,64,18,00,00,01,03,25,
6360240,000001D4,false,Rx,0,8,F7,07,00,00,07,46,30,DB,
6367537,000001F2,false,Rx,0,8,10,64,00,00,00,1E,00,0C,
6367601,00000284,false,Rx,0,8,00,00,00,00,00,00,4E,D4,
6367664,0000050A,false,Rx,0,6,85,22,A0,1D,80,20,00,00,
6367727,000001DB,false,Rx,0,8,FF,A0,C0,6A,00,00,02,F2,
6367790,000001DC,false,Rx,0,8,6E,04,0F,FD,04,D8,C6,DD,
6367853,0000011A,false,Rx,0,8,01,40,80,55,00,00,01,0A,
6368787,000001DA,false,Rx,0,8,C1,64,18,00,00,01,00,2F,
6370452,000001D4,false,Rx,0,8,F7,07,00,00,47,46,30,1C,
6370724,000001F2,false,Rx,0,8,10,64,00,00,00,1E,01,0D,
6371418,000001DB,false,Rx,0,8,FF,A0,C0,6A,00,00,03,77,
6371691,000001DC,false,Rx,0,8,6E,04,0F,FD,08,C0,C7,92,
6375836,0000011A,false,Rx,0,8,01,40,80,55,40,00,02,C7,
6378790,000001DA,false,Rx,0,8,C1,64,18,00,00,01,01,AA,
6380733,000001D4,false,Rx,0,8,F7,07,00,00,87,46,30,D0,
6380946,000001F2,false,Rx,0,8,10,64,00,00,00,1E,02,0E,
6381220,00000284,false,Rx,0,8,00,00,00,00,00,00,4F,D5,
6381382,0000050B,false,Rx,0,6,00,00,02,C0,00,60,00,00,
6381655,000001DB,false,Rx,0,8,FF,A0,C0,6A,00,00,00,7D,
6381868,000001DC,false,Rx,0,8,6E,04,0F,FD,0C,C4,C0,36,
6386126,0000011A,false,Rx,0,8,01,40,80,AA,80,00,03,D1,
6388787,000001DA,false,Rx,0,8,C1,64,18,00,00,01,02,A0,
6389000,0000055A,false,Rx,0,8,00,44,41,00,5F,43,5B,48,
6390942,000001D4,false,Rx,0,8,F7,07,00,00,C7,46,30,17,
6391157,000001F2,false,Rx,0,8,10,64,00,00,00,1E,03,0F,
6391615,000001DB,false,Rx,0,8,FF,A0,C0,6A,00,00,01,F8,
6391887,000001DC,false,Rx,0,8,6E,04,0F,FD,01,08,D1,D6,
6392103,0000055B,false,Rx,0,8,AB,00,AA,00,FF,C0,10,BB,
6395420,0000011A,false,Rx,0,8,01,40,80,AA,C0,00,00,1C,
6398789,000001DA,false,Rx,0,8,C1,64,18,00,00,01,03,25,
6401208,000001D4,false,Rx,0,8,F7,07,00,00,07,46,30,DB,
6401430,000001DB,false,Rx,0,8,FF,A0,C0,6A,00,00,02,F2,
6401702,000001DC,false,Rx,0,8,6E,04,0F,FD,04,D8,C6,DD,
6401916,000001F2,false,Rx,0,8,10,64,00,00,00,1E,00,0C,
6402191,00000284,false,Rx,0,8,00,00,00,00,00,00,50,D6,
6406101,0000011A,false,Rx,0,8,01,40,80,55,00,00,01,0A,
6408762,000001DA,false,Rx,0,8,C1,64,18,00,00,01,00,2F,
6409272,0000054A,false,Rx,0,8,9E,00,70,06,22,00,00,3D,
6410268,0000054B,false,Rx,0,8,00,48,88,12,0C,00,00,00,
6411258,0000054C,false,Rx,0,8,8E,66,40,00,00,40,7C,00,
6411530,000001D4,false,Rx,0,8,F7,07,00,00,47,46,30,1C,
6411744,000001DB,false,Rx,0,8,FF,A0,C0,6A,00,00,03,77,
6411958,000001DC,false,Rx,0,8,6E,04,0F,FD,08,C0,C7,92,
6412240,000001F2,false,Rx,0,8,10,64,00,00,00,1E,01,0D,
6412453,0000054F,false,Rx,0,8,44,01,00,00,07,C0,88,33,
6415824,0000011A,false,Rx,0,8,01,40,80,55,40,00,02,C7,
6425249,000001DA,false,Rx,0,8,C1,64,18,00,00,01,01,AA,
6425314,00000380,false,Rx,0,8,02,04,10,21,00,00,00,B0,
6425377,000005BF,false,Rx,0,8,00,00,00,00,28,00,00,09,
6425440,0000056E,false,Rx,0,1,46,00,00,00,00,00,00,00,
6425503,000001DB,false,Rx,0,8,FF,80,C0,6A,00,00,00,2C,
6425566,000001DC,false,Rx,0,8,6E,04,0F,FD,0C,C4,C0,36,
6425629,000001D4,false,Rx,0,8,F7,07,00,00,87,46,30,D0,
6425692,000001F2,false,Rx,0,8,10,64,00,00,00,1E,02,0E,
6425755,00000284,false,Rx,0,8,00,00,00,00,00,00,51,D7,
6426089,0000011A,false,Rx,0,8,01,40,80,AA,80,00,03,D1,
6428747,000001DA,false,Rx,0,8,C1,64,18,00,00,01,02,A0,
6431408,000001DB,false,Rx,0,8,FF,80,C0,6A,00,00,01,A9,
6431681,000001DC,false,Rx,0,8,6E,04,0F,FD,01,08,D1,D6,
6431953,000001D4,false,Rx,0,8,F7,07,00,00,C7,46,30,17,
6432168,000001F2,false,Rx,0,8,10,64,00,00,00,1E,03,0F,
6435307,0000011A,false,Rx,0,8,01,40,80,AA,C0,00,00,1C,
6438766,000001DA,false,Rx,0,8,C1,64,18,00,00,01,03,25,
6441430,000001DB,false,Rx,0,8,FF,80,C0,6A,00,00,02,A3,
6441643,000001DC,false,Rx,0,8,6E,04,0F,FD,04,D8,C6,DD,
6442214,000001D4,false,Rx,0,8,F7,07,00,00,07,46,30,DB,
6442435,000001F2,false,Rx,0,8,10,64,00,00,00,1E,00,0C,
6442648,00000284,false,Rx,0,8,00,00,00,00,00,00,52,D8,
6442861,0000050C,false,Rx,0,6,00,00,00,02,5D,63,00,00,
6446115,0000011A,false,Rx,0,8,01,40,80,55,00,00,01,0A,
6448772,000001DA,false,Rx,0,8,C1,64,18,00,00,01,00,2F,
6451433,000001DB,false,Rx,0,8,FF,80,C0,6A,00,00,03,26,
6451646,000001DC,false,Rx,0,8,6E,04,0F,FD,08,C0,C7,92,
6452399,000001D4,false,Rx,0,8,F7,07,00,00,47,46,30,1C,
6452613,000001F2,false,Rx,0,8,10,64,00,00,00,1E,01,0D,
6455806,0000011A,false,Rx,0,8,01,40,80,55,40,00,02,C7,
6458765,000001DA,false,Rx,0,8,C1,64,18,00,00,01,01,AA,
6461438,000001DB,false,Rx,0,8,FF,80,C0,6A,00,00,00,2C,
6461652,000001DC,false,Rx,0,8,6E,04,0F,FD,0C,C4,C0,36,
6462641,000001D4,false,Rx,0,8,F7,07,00,00,87,46,30,D0,
6462913,000001F2,false,Rx,0,8,10,64,00,00,00,1E,02,0E,
6463130,00000284,false,Rx,0,8,00,00,00,00,00,00,53,D9,
6463351,0000050A,false,Rx,0,6,85,42,A0,1D,80,20,00,00,
6466120,0000011A,false,Rx,0,8,01,40,80,AA,80,00,03,D1,
6468777,000001DA,false,Rx,0,8,C1,64,18,00,00,01,02,A0,
6471451,000001DB,false,Rx,0,8,FF,80,C0,6A,00,00,01,A9,
6471665,000001DC,false,Rx,0,8,6E,04,0F,FD,01,08,D1,D6,
6472889,000001D4,false,Rx,0,8,F7,07,00,00,C7,46,30,17,
6473104,000001F2,false,Rx,0,8,10,64,00,00,00,1E,03,0F,
6482463,0000011A,false,Rx,0,8,01,40,80,AA,C0,00,00,1C,
6482528,000001DA,false,Rx,0,8,C1,64,18,00,00,01,03,25,
6482591,000001DB,false,Rx,0,8,FF,80,C0,6A,00,00,02,A3,
6482654,000001DC,false,Rx,0,8,6E,04,0F,FD,04,D8,C6,DD,
6483164,000001D4,false,Rx,0,8,F7,07,00,00,07,46,30,DB,
6483386,000001F2,false,Rx,0,8,10,64,00,00,00,1E,00,0C,
6483599,00000284,false,Rx,0,8,00,00,00,00,00,00,54,DA,
6483812,0000050B,false,Rx,0,6,00,00,02,C0,00,60,00,00,
6486069,0000011A,false,Rx,0,8,01,40,80,55,00,00,01,0A,
6488727,000001DA,false,Rx,0,8,C1,64,18,00,00,01,00,2F,
6489000,0000055A,false,Rx,0,8,00,44,41,00,5F,43,5B,48,
6491600,000001DB,false,Rx,0,8,FF,A0,C0,6A,00,00,03,77,
6491814,000001DC,false,Rx,0,8,6E,04,0F,FD,08,C0,C7,92,
6492091,0000055B,false,Rx,0,8,AB,00,AA,00,FF,C0,11,3E,
6493385,000001D4,false,Rx,0,8,F7,07,00,00,47,46,30,1C,
6493598,000001F2,false,Rx,0,8,10,64,00,00,00,1E,01,0D,
6495777,0000011A,false,Rx,0,8,01,40,80,55,40,00,02,C7,
6498733,000001DA,false,Rx,0,8,C1,64,18,00,00,01,01,AA,
6501457,000001DB,false,Rx,0,8,FF,A0,C0,6A,00,00,00,7D,
6501670,000001DC,false,Rx,0,8,6E,04,0F,FD,0C,C4,C0,36,
6503674,000001D4,false,Rx,0,8,F7,07,00,00,87,46,30,D0,
6503886,000001F2,false,Rx,0,8,10,64,00,00,00,1E,02,0E,
6504160,00000284,false,Rx,0,8,00,00,00,00,00,00,55,DB,
6506108,0000011A,false,Rx,0,8,01,40,80,AA,80,00,03,D1,
6508765,000001DA,false,Rx,0,8,C1,64,18,00,00,01,02,A0,
6510355,0000054A,false,Rx,0,8,10,00,70,06,22,00,00,3D,
6511346,0000054B,false,Rx,0,8,00,48,88,12,0C,00,00,00,
6511560,000001DB,false,Rx,0,8,FF,A0,C0,6A,00,00,01,F8,
6511832,000001DC,false,Rx,0,8,6E,04,0F,FD,01,08,D1,D6,
6512349,0000054C,false,Rx,0,8,8E,66,40,00,00,40,7C,00,
6513339,0000054F,false,Rx,0,8,44,01,00,00,07,00,88,33,
6513906,000001D4,false,Rx,0,8,F7,07,00,00,C7,46,30,17,
6514120,000001F2,false,Rx,0,8,10,64,00,00,00,1E,03,0F,
6515293,0000011A,false,Rx,0,8,01,40,80,AA,C0,00,00,1C,
6518719,000001DA,false,Rx,0,8,C1,64,18,00,00,01,03,25,
6518992,00000380,false,Rx,0,8,02,04,10,21,00,00,00,8D,
6519208,000005BF,false,Rx,0,8,00,00,00,00,28,00,00,1A,
6519369,0000056E,false,Rx,0,1,46,00,00,00,00,00,00,00,
6521433,000001DB,false,Rx,0,8,FF,A0,C0,6A,00,00,02,F2,
6521646,000001DC,false,Rx,0,8,6E,04,0F,FD,04,D8,C6,DD,
6524121,000001D4,false,Rx,0,8,F7,07,00,00,07,46,30,DB,
6524342,000001F2,false,Rx,0,8,10,64,00,00,00,1E,00,0C,
6524614,00000284,false,Rx,0,8,00,00,00,00,00,00,56,DC,
6526078,0000011A,false,Rx,0,8,01,40,80,55,00,00,01,0A,
6528740,000001DA,false,Rx,0,8,C1,64,18,00,00,01,00,2F,
6531404,000001DB,false,Rx,0,8,FF,A0,C0,6A,00,00,03,77,
6531677,000001DC,false,Rx,0,8,6E,04,0F,FD,08,C0,C7,92,
6540558,000001D4,false,Rx,0,8,F7,07,00,00,47,46,30,1C,
6540631,000001F2,false,Rx,0,8,10,64,00,00,00,1E,01,0D,
6540694,00000284,false,Rx,0,8,00,00,00,00,00,00,57,DD,
6540757,0000011A,false,Rx,0,8,01,40,80,55,40,00,02,C7,
6540821,000001DA,false,Rx,0,8,C1,64,18,00,00,01,01,AA,
6541398,000001DB,false,Rx,0,8,FF,A0,C0,6A,00,00,00,7D,
6541671,000001DC,false,Rx,0,8,6E,04,0F,FD,0C,C4,C0,36,
6544569,000001D4,false,Rx,0,8,F7,07,00,00,87,46,30,D0,
6544842,000001F2,false,Rx,0,8,10,64,00,00,00,1E,02,0E,
6545057,0000050C,false,Rx,0,6,00,00,00,03,5D,F4,00,00,
6546046,0000011A,false,Rx,0,8,01,40,80,AA,80,00,03,D1,
6548764,000001DA,false,Rx,0,8,C1,64,18,00,00,01,02,A0,
6551396,000001DB,false,Rx,0,8,FF,A0,C0,6A,00,00,01,F8,
6551668,000001DC,false,Rx,0,8,6E,04,0F,FD,01,08,D1,D6,
6554865,000001D4,false,Rx,0,8,F7,07,00,00,C7,46,30,17,
6555080,000001F2,false,Rx,0,8,10,64,00,00,00,1E,03,0F,
6555302,0000011A,false,Rx,0,8,01,40,80,AA,C0,00,00,1C,
6555574,00000284,false,Rx,0,8,00,00,00,00,00,00,58,DE,
6558727,000001DA,false,Rx,0,8,C1,64,18,00,00,01,03,25,
6561392,000001DB,false,Rx,0,8,FF,A0,C0,6A,00,00,02,F2,
6561665,000001DC,false,Rx,0,8,6E,04,0F,FD,04,D8,C6,DD,
6565096,000001D4,false,Rx,0,8,F7,07,00,00,07,46,30,DB,
6565319,000001F2,false,Rx,0,8,10,64,00,00,00,1E,00,0C,
6565531,0000050A,false,Rx,0,6,85,62,A0,1D,80,20,00,00,
6566042,0000011A,false,Rx,0,8,01,40,80,55,00,00,01,0A,
6568759,000001DA,false,Rx,0,8,C1,64,18,00,00,01,00,2F,
6571430,000001DB,false,Rx,0,8,FF,A0,C0,6A,00,00,03,77,
6571644,000001DC,false,Rx,0,8,6E,04,0F,FD,08,C0,C7,92,
6575318,000001D4,false,Rx,0,8,F7,07,00,00,47,46,30,1C,
6575591,000001F2,false,Rx,0,8,10,64,00,00,00,1E,01,0D,
6575804,0000011A,false,Rx,0,8,01,40,80,55,40,00,02,C7,
6576076,00000284,false,Rx,0,8,00,00,00,00,00,00,59,DF,
6578738,000001DA,false,Rx,0,8,C1,64,18,00,00,01,01,AA,
6581405,000001DB,false,Rx,0,8,FF,A0,C0,6A,00,00,00,7D,
6581678,000001DC,false,Rx,0,8,6E,04,0F,FD,0C,C4,C0,36,
6585548,000001D4,false,Rx,0,8,F7,07,00,00,87,46,30,D0,
6585760,000001F2,false,Rx,0,8,10,64,00,00,00,1E,02,0E,
6585974,0000050B,false,Rx,0,6,00,00,02,C0,00,60,00,00,
6586255,0000011A,false,Rx,0,8,01,40,80,AA,80,00,03,D1,
6588730,000001DA,false,Rx,0,8,C1,64,18,00,00,01,02,A0,
6589003,0000055A,false,Rx,0,8,00,44,41,00,5F,43,5B,48,
6597464,000001DB,false,Rx,0,8,FF,A0,C0,6A,00,00,01,F8,
6597528,000001DC,false,Rx,0,8,6E,04,0F,FD,01,08,D1,D6,
6597591,0000055B,false,Rx,0,8,AB,00,AA,00,FF,C0,12,34,
6597654,0000011A,false,Rx,0,8,01,40,80,AA,C0,00,00,1C,
6597718,000001D4,false,Rx,0,8,F7,07,00,00,C7,46,30,17,
6597781,000001F2,false,Rx,0,8,10,64,00,00,00,1E,03,0F,
6597844,00000284,false,Rx,0,8,00,00,00,00,00,00,5A,E0,
6598716,000001DA,false,Rx,0,8,C1,64,18,00,00,01,03,25,
6601436,000001DB,false,Rx,0,8,FF,A0,C0,6A,00,00,02,F2,
6601650,000001DC,false,Rx,0,8,6E,04,0F,FD,04,D8,C6,DD,
6606038,0000011A,false,Rx,0,8,01,40,80,55,00,00,01,0A,
6606259,000001D4,false,Rx,0,8,F7,07,00,00,07,46,30,DB,
6606472,000001F2,false,Rx,0,8,10,64,00,00,00,1E,00,0C,
6608769,000001DA,false,Rx,0,8,C1,64,18,00,00,01,00,2F,
6609406,0000054A,false,Rx,0,8,9E,00,70,06,22,00,00,3D,
6610399,0000054B,false,Rx,0,8,00,48,88,12,0C,00,00,00,
6611390,000001DB,false,Rx,0,8,FF,A0,C0,6A,00,00,03,77,
6611663,000001DC,false,Rx,0,8,6E,04,0F,FD,08,C0,C7,92,
6611876,0000054C,false,Rx,0,8,8E,66,40,00,00,40,7C,00,
6612395,0000054F,false,Rx,0,8,44,01,00,00,07,40,88,33,
6615706,0000011A,false,Rx,0,8,01,40,80,55,40,00,02,C7,
6616341,000001D4,false,Rx,0,8,F7,07,00,00,47,46,30,1C,
6616614,000001F2,false,Rx,0,8,10,64,00,00,00,1E,01,0D,
6616827,00000284,false,Rx,0,8,00,00,00,00,00,00,5B,E1,
6618711,000001DA,false,Rx,0,8,C1,64,18,00,00,01,01,AA,
6618984,00000380,false,Rx,0,8,02,04,10,21,00,00,00,9E,
6619199,000005BF,false,Rx,0,8,00,00,00,00,28,00,00,2B,
6619361,0000056E,false,Rx,0,1,46,00,00,00,00,00,00,00,
6621422,000001DB,false,Rx,0,8,FF,A0,C0,6A,00,00,00,7D,
6621636,000001DC,false,Rx,0,8,6E,04,0F,FD,0C,C4,C0,36,
6626023,0000011A,false,Rx,0,8,01,40,80,AA,80,00,03,D1,
6626540,000001D4,false,Rx,0,8,F7,07,00,00,87,46,30,D0,
6626753,000001F2,false,Rx,0,8,10,64,00,00,00,1E,02,0E,
6628759,000001DA,false,Rx,0,8,C1,64,18,00,00,01,02,A0,
6631420,000001DB,false,Rx,0,8,FF,A0,C0,6A,00,00,01,F8,
6631634,000001DC,false,Rx,0,8,6E,04,0F,FD,01,08,D1,D6,
6635308,0000011A,false,Rx,0,8,01,40,80,AA,C0,00,00,1C,
6636828,000001D4,false,Rx,0,8,F7,07,00,00,C7,46,30,17,
6637102,000001F2,false,Rx,0,8,10,64,00,00,00,1E,03,0F,
6637324,00000284,false,Rx,0,8,00,00,00,00,00,00,5C,E2,
6638727,000001DA,false,Rx,0,8,C1,64,18,00,00,01,03,25,
6641420,000001DB,false,Rx,0,8,FF,A0,C0,6A,00,00,02,F2,
6641634,000001DC,false,Rx,0,8,6E,04,0F,FD,04,D8,C6,DD,
6645970,0000011A,false,Rx,0,8,01,40,00,55,00,00,01,15,
6647101,000001D4,false,Rx,0,8,F7,07,00,00,07,46,30,DB,
6647322,000001F2,false,Rx,0,8,10,64,00,00,00,1E,00,0C,
6655357,0000050C,false,Rx,0,6,00,00,00,00,5D,C8,00,00,
6655421,000001DA,false,Rx,0,8,C1,64,18,00,00,01,00,2F,
6655484,000001DB,false,Rx,0,8,FF,A0,C0,6A,00,00,03,77,
6655548,000001DC,false,Rx,0,8,6E,04,0F,FD,08,C0,C7,92,
6655702,0000011A,false,Rx,0,8,01,40,00,55,40,00,02,D8,
6657293,000001D4,false,Rx,0,8,F7,07,00,00,47,46,30,1C,
6657565,000001F2,false,Rx,0,8,10,64,00,00,00,1E,01,0D,
6657779,00000284,false,Rx,0,8,00,00,00,00,00,00,5D,E3,
6658057,000005A9,false,Rx,0,8,7A,17,20,10,83,E0,00,00,
6658750,000001DA,false,Rx,0,8,C1,64,18,00,00,01,01,AA,
6661423,000001DB,false,Rx,0,8,FF,A0,C0,6A,00,00,00,7D,
6661637,000001DC,false,Rx,0,8,6E,04,0F,FD,0C,C4,C0,36,
6665963,0000011A,false,Rx,0,8,01,40,00,AA,80,00,03,CE,
6667554,000001D4,false,Rx,0,8,F7,07,00,00,87,46,30,D0,
6667827,000001F2,false,Rx,0,8,10,64,00,00,00,1E,02,0E,
6668044,0000050A,false,Rx,0,6,85,02,A0,1D,80,20,00,00,
6668737,000001DA,false,Rx,0,8,C1,64,18,00,00,01,02,A0,
6671410,000001DB,false,Rx,0,8,FF,A0,C0,6A,00,00,01,F8,
6671624,000001DC,false,Rx,0,8,6E,04,0F,FD,01,08,D1,D6,
6675240,0000011A,false,Rx,0,8,01,40,00,AA,C0,00,00,03,
6677771,000001D4,false,Rx,0,8,F7,07,00,00,C7,46,30,17,
6678045,000001F2,false,Rx,0,8,10,64,00,00,00,1E,03,0F,
6678259,00000284,false,Rx,0,8,00,00,00,00,00,00,5E,E4,
6678709,000001DA,false,Rx,0,8,C1,64,18,00,00,01,03,25,
6681429,000001DB,false,Rx,0,8,FF,A0,C0,6A,00,00,02,F2,
6681643,000001DC,false,Rx,0,8,6E,04,0F,FD,04,D8,C6,DD,
6685983,0000011A,false,Rx,0,8,01,40,00,55,00,00,01,15,
6688049,000001D4,false,Rx,0,8,F7,07,00,00,07,46,30,DB,
6688262,000001F2,false,Rx,0,8,10,64,00,00,00,1E,00,0C,
6688484,0000050B,false,Rx,0,6,00,00,02,C0,00,60,00,00,
6688697,000001DA,false,Rx,0,8,C1,64,18,00,00,01,00,2F,
6688969,0000055A,false,Rx,0,8,00,44,41,00,5F,43,5B,48,
6691576,000001DB,false,Rx,0,8,FF,A0,C0,6A,00,00,03,77,
6691788,000001DC,false,Rx,0,8,6E,04,0F,FD,08,C0,C7,92,
6692063,0000055B,false,Rx,0,8,AB,00,AA,00,FF,C0,13,B1,
6695679,0000011A,false,Rx,0,8,01,40,00,55,40,00,02,D8,
6698339,000001D4,false,Rx,0,8,F7,07,00,00,47,46,30,1C,
6698552,000001F2,false,Rx,0,8,10,64,00,00,00,1E,01,0D,
6698825,000001DA,false,Rx,0,8,C1,64,18,00,00,01,01,AA,
6699039,00000284,false,Rx,0,8,00,00,00,00,00,00,5F,E5,
6701759,000001DB,false,Rx,0,8,FF,A0,C0,6A,00,00,00,7D,
6701973,000001DC,false,Rx,0,8,6E,04,0F,FD,0C,C4,C0,36,
6702188,000005BC,false,Rx,0,8,25,03,2A,39,91,06,40,96,
6702469,000005C0,false,Rx,0,8,40,74,74,00,66,08,00,00,
6712855,0000011A,false,Rx,0,8,01,40,00,AA,80,00,03,CE,
6712919,000001D4,false,Rx,0,8,F7,07,00,00,87,46,30,D0,
6712982,000001DA,false,Rx,0,8,C1,64,18,00,00,01,02,A0,
6713047,000001F2,false,Rx,0,8,10,64,00,00,00,1E,02,0E,
6713110,0000054A,false,Rx,0,8,10,00,70,06,22,00,00,3D,
6713173,0000054B,false,Rx,0,8,00,48,88,12,0C,00,00,00,
6713244,000001DB,false,Rx,0,8,FF,A0,C0,6A,00,00,01,F8,
6713307,000001DC,false,Rx,0,8,6E,04,0F,FD,01,08,D1,D6,
6713371,0000054C,false,Rx,0,8,8E,66,40,00,00,40,7C,00,
6713434,0000054F,false,Rx,0,8,44,01,00,00,07,80,88,33,
6715262,0000011A,false,Rx,0,8,01,40,00,AA,C0,00,00,03,
6718692,000001DA,false,Rx,0,8,C1,64,18,00,00,01,03,25,
6718964,000001D4,false,Rx,0,8,F7,07,00,00,C7,46,30,17,
6719179,000001F2,false,Rx,0,8,10,64,00,00,00,1E,03,0F,
6719458,00000284,false,Rx,0,8,00,00,00,00,00,00,60,E6,
6719672,00000380,false,Rx,0,8,02,04,10,21,00,00,00,AF,
6719767,0000056E,false,Rx,0,1,46,00,00,00,00,00,00,00,
6720041,000005BF,false,Rx,0,8,00,00,00,00,28,00,00,3C,
6721392,000001DB,false,Rx,0,8,FF,A0,C0,6A,00,00,02,F2,
6721605,000001DC,false,Rx,0,8,6E,04,0F,FD,04,D8,C6,DD,
6725988,0000011A,false,Rx,0,8,01,40,00,55,00,00,01,15,
6728710,000001DA,false,Rx,0,8,C1,64,18,00,00,01,00,2F,
6729044,000001D4,false,Rx,0,8,F7,07,00,00,07,46,30,DB,
6729317,000001F2,false,Rx,0,8,10,64,00,00,00,1E,00,0C,
6729471,000005B9,false,Rx,0,5,40,78,51,4A,28,00,00,00,
6731415,000001DB,false,Rx,0,8,FF,A0,C0,6A,00,00,03,77,
6731629,000001DC,false,Rx,0,8,6E,04,0F,FD,08,C0,C7,92,
6735891,0000011A,false,Rx,0,8,01,40,00,55,40,00,02,D8,
6738728,000001DA,false,Rx,0,8,C1,64,18,00,00,01,01,AA,
6739305,000001D4,false,Rx,0,8,F7,07,00,00,47,46,30,1C,
6739518,000001F2,false,Rx,0,8,10,64,00,00,00,1E,01,0D,
6739791,00000284,false,Rx,0,8,00,00,00,00,00,00,61,E7,
6741379,000001DB,false,Rx,0,8,FF,A0,C0,6A,00,00,00,7D,
6741652,000001DC,false,Rx,0,8,6E,04,0F,FD,0C,C4,C0,36,
6745940,0000011A,false,Rx,0,8,01,40,00,AA,80,00,03,CE,
6748728,000001DA,false,Rx,0,8,C1,64,18,00,00,01,02,A0,
6749541,000001D4,false,Rx,0,8,F7,07,00,00,87,46,30,D0,
6749755,000001F2,false,Rx,0,8,10,64,00,00,00,1E,02,0E,
6749969,0000050C,false,Rx,0,6,00,00,00,01,5D,5F,00,00,
6751383,000001DB,false,Rx,0,8,FF,A0,C0,6A,00,00,01,F8,
6751656,000001DC,false,Rx,0,8,6E,04,0F,FD,01,08,D1,D6,
6755148,0000011A,false,Rx,0,8,01,40,00,AA,C0,00,00,03,
6758700,000001DA,false,Rx,0,8,C1,64,18,00,00,01,03,25,
6759749,000001D4,false,Rx,0,8,F7,07,00,00,C7,46,30,17,
6760022,000001F2,false,Rx,0,8,10,64,00,00,00,1E,03,0F,
6760243,00000284,false,Rx,0,8,00,00,00,00,00,00,62,E8,
6761411,000001DB,false,Rx,0,8,FF,A0,C0,6A,00,00,02,F2,
6761624,000001DC,false,Rx,0,8,6E,04,0F,FD,04,D8,C6,DD,
6771084,0000011A,false,Rx,0,8,01,40,00,55,00,00,01,15,
6771148,000001DA,false,Rx,0,8,C1,64,18,00,00,01,00,2F,
6771211,000001D4,false,Rx,0,8,F7,07,00,00,07,46,30,DB,
6771282,000001F2,false,Rx,0,8,10,64,00,00,00,1E,00,0C,
6771377,0000050A,false,Rx,0,6,85,22,A0,1D,80,20,00,00,
6771440,000001DB,false,Rx,0,8,FF,A0,C0,6A,00,00,03,77,
6771653,000001DC,false,Rx,0,8,6E,04,0F,FD,08,C0,C7,92,
6775917,0000011A,false,Rx,0,8,01,40,00,55,40,00,02,D8,
6778700,000001DA,false,Rx,0,8,C1,64,18,00,00,01,01,AA,
6780223,000001D4,false,Rx,0,8,F7,07,00,00,47,46,30,1C,
6780503,000001F2,false,Rx,0,8,10,64,00,00,00,1E,01,0D,
6780716,00000284,false,Rx,0,8,00,00,00,00,00,00,63,E9,
6781410,000001DB,false,Rx,0,8,FF,A0,C0,6A,00,00,00,7D,
6781624,000001DC,false,Rx,0,8,6E,04,0F,FD,0C,C4,C0,36,
6785903,0000011A,false,Rx,0,8,01,40,00,AA,80,00,03,CE,
6788686,000001DA,false,Rx,0,8,C1,64,18,00,00,01,02,A0,
6788959,0000055A,false,Rx,0,8,00,44,41,00,5F,43,5B,48,
6790491,000001D4,false,Rx,0,8,F7,07,00,00,87,46,30,D0,
6790705,000001F2,false,Rx,0,8,10,64,00,00,00,1E,02,0E,
6790918,0000050B,false,Rx,0,6,00,00,02,C0,00,60,00,00,
6791616,000001DB,false,Rx,0,8,FF,A0,C0,6A,00,00,01,F8,
6791828,000001DC,false,Rx,0,8,6E,04,0F,FD,01,08,D1,D6,
6792045,0000055B,false,Rx,0,8,AB,00,AA,00,FF,C0,10,BB,
6795180,0000011A,false,Rx,0,8,01,40,00,AA,C0,00,00,03,
6798674,000001DA,false,Rx,0,8,C1,64,18,00,00,01,03,25,
6800766,000001D4,false,Rx,0,8,F7,07,00,00,C7,46,30,17,
6801041,000001F2,false,Rx,0,8,10,64,00,00,00,1E,03,0F,
6801261,00000284,false,Rx,0,8,00,00,00,00,00,00,64,EA,
6801475,000001DB,false,Rx,0,8,FF,A0,C0,6A,00,00,02,F2,
6801747,000001DC,false,Rx,0,8,6E,04,0F,FD,04,D8,C6,DD,
6805895,0000011A,false,Rx,0,8,01,40,00,55,00,00,01,15,
6808674,000001DA,false,Rx,0,8,C1,64,18,00,00,01,00,2F,
6809609,0000054A,false,Rx,0,8,9E,00,70,06,22,00,00,3D,
6810598,0000054B,false,Rx,0,8,00,48,88,12,0C,00,00,00,
6810930,000001D4,false,Rx,0,8,F7,07,00,00,07,46,30,DB,
6811208,000001F2,false,Rx,0,8,10,64,00,00,00,1E,00,0C,
6811429,000001DB,false,Rx,0,8,FF,A0,C0,6A,00,00,03,77,
6811643,000001DC,false,Rx,0,8,6E,04,0F,FD,08,C0,C7,92,
6811916,0000054C,false,Rx,0,8,8E,66,40,00,00,40,7C,00,
6812553,0000054F,false,Rx,0,8,44,01,00,00,07,C0,88,33,
6815884,0000011A,false,Rx,0,8,01,40,00,55,40,00,02,D8,
6818724,000001DA,false,Rx,0,8,C1,64,18,00,00,01,01,AA,
6819175,00000380,false,Rx,0,8,02,04,10,21,00,00,00,B0,
6819276,0000056E,false,Rx,0,1,46,00,00,00,00,00,00,00,
6819548,000005BF,false,Rx,0,8,00,00,00,00,28,00,00,09,
6828751,000001D4,false,Rx,0,8,F7,07,00,00,47,46,30,1C,
6828815,000001DB,false,Rx,0,8,FF,A0,C0,6A,00,00,00,7D,
6828878,000001DC,false,Rx,0,8,6E,04,0F,FD,0C,C4,C0,36,
6828941,000001F2,false,Rx,0,8,10,64,00,00,00,1E,01,0D,
6829005,00000284,false,Rx,0,8,00,00,00,00,00,00,65,EB,
6829069,0000011A,false,Rx,0,8,01,40,00,AA,80,00,03,CE,
6829133,000001DA,false,Rx,0,8,C1,64,18,00,00,01,02,A0,
6831380,000001DB,false,Rx,0,8,FF,80,C0,6A,00,00,01,A9,
6831652,000001D4,false,Rx,0,8,F7,07,00,00,87,46,30,D0,
6831866,000001DC,false,Rx,0,8,6E,04,0F,FD,01,08,D1,D6,
6832082,000001F2,false,Rx,0,8,10,64,00,00,00,1E,02,0E,
6835161,0000011A,false,Rx,0,8,01,40,00,AA,C0,00,00,03,
6838715,000001DA,false,Rx,0,8,C1,64,18,00,00,01,03,25,
6841377,000001DB,false,Rx,0,8,FF,80,C0,6A,00,00,02,A3,
6841649,000001DC,false,Rx,0,8,6E,04,0F,FD,04,D8,C6,DD,
6841862,000001D4,false,Rx,0,8,F7,07,00,00,C7,46,30,17,
6842077,000001F2,false,Rx,0,8,10,64,00,00,00,1E,03,0F,
6842358,00000284,false,Rx,0,8,00,00,00,00,00,00,66,EC,
6845921,0000011A,false,Rx,0,8,01,40,00,55,00,00,01,15,
6848710,000001DA,false,Rx,0,8,C1,64,18,00,00,01,00,2F,
6851374,000001DB,false,Rx,0,8,FF,80,C0,6A,00,00,03,26,
6851645,000001DC,false,Rx,0,8,6E,04,0F,FD,08,C0,C7,92,
6851918,000001D4,false,Rx,0,8,F7,07,00,00,07,46,30,DB,
6852195,000001F2,false,Rx,0,8,10,64,00,00,00,1E,00,0C,
6852415,0000050C,false,Rx,0,6,00,00,00,02,5D,63,00,00,
6855846,0000011A,false,Rx,0,8,01,40,00,55,40,00,02,D8,
6858687,000001DA,false,Rx,0,8,C1,64,18,00,00,01,01,AA,
6861361,000001DB,false,Rx,0,8,FF,80,C0,6A,00,00,00,2C,
6861634,000001DC,false,Rx,0,8,6E,04,0F,FD,0C,C4,C0,36,
6862205,000001D4,false,Rx,0,8,F7,07,00,00,47,46,30,1C,
6862427,000001F2,false,Rx,0,8,10,64,00,00,00,1E,01,0D,
6862700,00000284,false,Rx,0,8,00,00,00,00,00,00,67,ED,
6865892,0000011A,false,Rx,0,8,01,40,00,AA,80,00,03,CE,
6868671,000001DA,false,Rx,0,8,C1,64,18,00,00,01,02,A0,
6871405,000001DB,false,Rx,0,8,FF,80,C0,6A,00,00,01,A9,
6871618,000001DC,false,Rx,0,8,6E,04,0F,FD,01,08,D1,D6,
6872433,000001D4,false,Rx,0,8,F7,07,00,00,87,46,30,D0,
6872705,000001F2,false,Rx,0,8,10,64,00,00,00,1E,02,0E,
6872859,0000050A,false,Rx,0,6,85,42,A0,1D,80,20,00,00,
6875161,0000011A,false,Rx,0,8,01,40,00,AA,C0,00,00,03,
6878714,000001DA,false,Rx,0,8,C1,64,18,00,00,01,03,25,
6885661,000001DB,false,Rx,0,8,FF,80,C0,6A,00,00,02,A3,
6885725,000001DC,false,Rx,0,8,6E,04,0F,FD,04,D8,C6,DD,
6885788,000001D4,false,Rx,0,8,F7,07,00,00,C7,46,30,17,
6885884,000001F2,false,Rx,0,8,10,64,00,00,00,1E,03,0F,
6885947,00000284,false,Rx,0,8,00,00,00,00,00,00,68,EE,
6886010,0000011A,false,Rx,0,8,01,40,00,55,00,00,01,15,
6888671,000001DA,false,Rx,0,8,C1,64,18,00,00,01,00,2F,
6888944,0000055A,false,Rx,0,8,00,44,41,00,5F,43,5B,48,
6891547,000001DB,false,Rx,0,8,FF,80,C0,6A,00,00,03,26,
6891819,000001DC,false,Rx,0,8,6E,04,0F,FD,08,C0,C7,92,
6892036,0000055B,false,Rx,0,8,AB,00,55,00,FF,C0,11,79,
6892906,000001D4,false,Rx,0,8,F7,07,00,00,07,46,30,DB,
6893121,000001F2,false,Rx,0,8,10,64,00,00,00,1E,00,0C,
6893342,0000050B,false,Rx,0,6,00,00,02,C0,00,60,00,00,
6895818,0000011A,false,Rx,0,8,01,40,00,55,40,00,02,D8,
6898654,000001DA,false,Rx,0,8,C1,64,18,00,00,01,01,AA,
6901374,000001DB,false,Rx,0,8,FF,80,C0,6A,00,00,00,2C,
6901646,000001DC,false,Rx,0,8,6E,04,0F,FD,0C,C4,C0,36,
6903167,000001D4,false,Rx,0,8,F7,07,00,00,47,46,30,1C,
6903448,000001F2,false,Rx,0,8,10,64,00,00,00,1E,01,0D,
6903661,00000284,false,Rx,0,8,00,00,00,00,00,00,69,EF,
6905842,0000011A,false,Rx,0,8,01,40,00,AA,80,00,03,CE,
6908681,000001DA,false,Rx,0,8,C1,64,18,00,00,01,02,A0,
6909672,0000054A,false,Rx,0,8,10,00,70,06,22,00,00,3D,
6910662,0000054B,false,Rx,0,8,00,48,88,12,0C,00,00,00,
6911357,000001DB,false,Rx,0,8,FF,A0,C0,6A,00,00,01,F8,
6911629,000001DC,false,Rx,0,8,6E,04,0F,FD,01,08,D1,D6,
6911842,0000054C,false,Rx,0,8,8E,66,40,00,00,40,7C,00,
6912654,0000054F,false,Rx,0,8,44,01,00,00,07,00,88,33,
6913407,000001D4,false,Rx,0,8,F7,07,00,00,87,46,30,D0,
6913680,000001F2,false,Rx,0,8,10,64,00,00,00,1E,02,0E,
6915086,0000011A,false,Rx,0,8,01,40,00,AA,C0,00,00,03,
6918700,000001DA,false,Rx,0,8,C1,64,18,00,00,01,03,25,
6919277,00000380,false,Rx,0,8,02,04,10,21,00,00,00,8D,
6919372,0000056E,false,Rx,0,1,46,00,00,00,00,00,00,00,
6919643,000005BF,false,Rx,0,8,00,00,00,00,28,00,00,1A,
6921351,000001DB,false,Rx,0,8,FF,A0,C0,6A,00,00,02,F2,
6921623,000001DC,false,Rx,0,8,6E,04,0F,FD,04,D8,C6,DD,
6923687,000001D4,false,Rx,0,8,F7,07,00,00,C7,46,30,17,
6923959,000001F2,false,Rx,0,8,10,64,00,00,00,1E,03,0F,
6924174,00000284,false,Rx,0,8,00,00,00,00,00,00,6A,F0,
6925879,0000011A,false,Rx,0,8,01,40,00,55,00,00,01,15,
6928659,000001DA,false,Rx,0,8,C1,64,18,00,00,01,00,2F,
6931379,000001DB,false,Rx,0,8,FF,A0,C0,6A,00,00,03,77,
6931593,000001DC,false,Rx,0,8,6E,04,0F,FD,08,C0,C7,92,
6933830,000001D4,false,Rx,0,8,F7,07,00,00,07,46,30,DB,
6934105,000001F2,false,Rx,0,8,10,64,00,00,00,1E,00,0C,
6943695,0000011A,false,Rx,0,8,01,40,00,55,40,00,02,D8,
6943759,000001DA,false,Rx,0,8,C1,64,18,00,00,01,01,AA,
6943822,000001DB,false,Rx,0,8,FF,C0,C0,6A,00,00,00,8E,
6943885,000001DC,false,Rx,0,8,6E,04,0F,FD,0C,C4,C0,36,
6944159,000001D4,false,Rx,0,8,F7,07,00,00,47,46,30,1C,
6944380,000001F2,false,Rx,0,8,10,64,00,00,00,1E,01,0D,
6944653,00000284,false,Rx,0,8,00,00,00,00,00,00,6B,F1,
6945819,0000011A,false,Rx,0,8,01,40,00,AA,80,00,03,CE,
6948682,000001DA,false,Rx,0,8,C1,64,18,00,00,01,02,A0,
6951362,000001DB,false,Rx,0,8,FF,C0,C0,6A,00,00,01,0B,
6951635,000001DC,false,Rx,0,8,6E,04,0F,FD,01,08,D1,D6,
6954357,000001D4,false,Rx,0,8,F7,07,00,00,87,46,30,D0,
6954630,000001F2,false,Rx,0,8,10,64,00,00,00,1E,02,0E,
6954844,0000050C,false,Rx,0,6,00,00,00,03,B2,9A,00,00,
6955118,0000011A,false,Rx,0,8,01,40,00,AA,C0,00,00,03,
6958670,000001DA,false,Rx,0,8,C1,64,18,00,00,01,03,25,
6961393,000001DB,false,Rx,0,8,FF,A0,C0,6A,00,00,02,F2,
6961606,000001DC,false,Rx,0,8,6E,04,0F,FD,04,D8,C6,DD,
6964622,000001D4,false,Rx,0,8,F7,07,00,00,C7,46,30,17,
6964895,000001F2,false,Rx,0,8,10,64,00,00,00,1E,03,0F,
6965110,00000284,false,Rx,0,8,00,00,00,00,00,00,6C,F2,
6965803,0000011A,false,Rx,0,8,01,40,00,55,00,00,01,15,
6968699,000001DA,false,Rx,0,8,C1,64,18,00,00,01,00,2F,
6971367,000001DB,false,Rx,0,8,FF,A0,C0,6A,00,00,03,77,
6971579,000001DC,false,Rx,0,8,6E,04,0F,FD,08,C0,C7,92,
6974888,000001D4,false,Rx,0,8,F7,07,00,00,07,46,30,DB,
6975104,000001F2,false,Rx,0,8,10,64,00,00,00,1E,00,0C,
6975383,00000284,false,Rx,0,8,00,00,00,00,00,00,6D,F3,
6975597,0000050A,false,Rx,0,6,85,62,A0,1D,80,20,00,00,
6975810,0000011A,false,Rx,0,8,01,40,00,55,40,00,02,D8,
6978651,000001DA,false,Rx,0,8,C1,64,18,00,00,01,01,AA,
6981374,000001DB,false,Rx,0,8,FF,A0,C0,6A,00,00,00,7D,
6981587,000001DC,false,Rx,0,8,6E,04,0F,FD,0C,C4,C0,36,
6985087,000001D4,false,Rx,0,8,F7,07,00,00,47,46,30,1C,
6985309,000001F2,false,Rx,0,8,10,64,00,00,00,1E,01,0D,
6985817,0000011A,false,Rx,0,8,01,40,00,AA,80,00,03,CE,
6988656,000001DA,false,Rx,0,8,C1,64,18,00,00,01,02,A0,
6988928,0000055A,false,Rx,0,8,00,44,41,00,5F,43,5B,48,
6991528,000001DB,false,Rx,0,8,FF,A0,C0,6A,00,00,01,F8,
6991801,000001DC,false,Rx,0,8,6E,04,0F,FD,01,08,D1,D6,
6992015,0000055B,false,Rx,0,8,AB,00,55,00,FF,C0,12,73,
7000635,0000011A,false,Rx,0,8,01,40,00,AA,C0,00,00,03,
7000699,000001D4,false,Rx,0,8,F7,07,00,00,87,46,30,D0,
7000762,000001F2,false,Rx,0,8,10,64,00,00,00,1E,02,0E,
7000826,00000284,false,Rx,0,8,00,00,00,00,00,00,6E,F4,
7000889,0000050B,false,Rx,0,6,00,00,02,C0,00,60,00,00,
7000952,000001DA,false,Rx,0,8,C1,64,18,00,00,01,03,25,
7001352,000001DB,false,Rx,0,8,FF,A0,C0,6A,00,00,02,F2,
7001625,000001DC,false,Rx,0,8,6E,04,0F,FD,04,D8,C6,DD,
7005595,000001D4,false,Rx,0,8,F7,07,00,00,C7,46,30,17,
7005807,0000011A,false,Rx,0,8,01,40,00,55,00,00,01,15,
7006082,000001F2,false,Rx,0,8,10,64,00,00,00,1E,03,0F,
7008688,000001DA,false,Rx,0,8,C1,64,18,00,00,01,00,2F,
7009737,0000054A,false,Rx,0,8,9E,00,70,06,22,00,00,3D,
7010727,0000054B,false,Rx,0,8,00,48,88,12,0C,00,00,00,
7011363,000001DB,false,Rx,0,8,FF,A0,C0,6A,00,00,03,77,
7011577,000001DC,false,Rx,0,8,6E,04,0F,FD,08,C0,C7,92,
7011849,0000054C,false,Rx,0,8,8E,66,40,00,00,40,7C,00,
7012720,0000054F,false,Rx,0,8,44,01,00,00,07,40,88,33,
7015738,0000011A,false,Rx,0,8,01,40,00,55,40,00,02,D8,
7016010,000001D4,false,Rx,0,8,F7,07,00,00,07,46,30,DB,
7016232,000001F2,false,Rx,0,8,10,64,00,00,00,1E,00,0C,
7016504,00000284,false,Rx,0,8,00,00,00,00,00,00,6F,F5,
7018686,000001DA,false,Rx,0,8,C1,64,18,00,00,01,01,AA,
7019380,00000380,false,Rx,0,8,02,04,10,21,00,00,00,9E,
7019475,0000056E,false,Rx,0,1,46,00,00,00,00,00,00,00,
7019688,000005BF,false,Rx,0,8,00,00,00,00,28,00,00,2B,
7021398,000001DB,false,Rx,0,8,FF,A0,C0,6A,00,00,00,7D,
7021611,000001DC,false,Rx,0,8,6E,04,0F,FD,0C,C4,C0,36,
7025818,0000011A,false,Rx,0,8,01,40,00,AA,80,00,03,CE,
7026092,000001D4,false,Rx,0,8,F7,07,00,00,47,46,30,1C,
7026314,000001F2,false,Rx,0,8,10,64,00,00,00,1E,01,0D,
7028671,000001DA,false,Rx,0,8,C1,64,18,00,00,01,02,A0,
7031393,000001DB,false,Rx,0,8,FF,A0,C0,6A,00,00,01,F8,
7031606,000001DC,false,Rx,0,8,6E,04,0F,FD,01,08,D1,D6,
7035036,0000011A,false,Rx,0,8,01,40,00,AA,C0,00,00,03,
7036271,000001D4,false,Rx,0,8,F7,07,00,00,87,46,30,D0,
