Time Stamp,ID,Extended,Dir,Bus,LEN,D1,D2,D3,D4,D5,D6,D7,D8
4877006303,000001F2,false,Rx,0,8,10,64,00,00,00,1E,01,0D,
4877006524,00000284,false,Rx,0,8,00,00,00,00,00,00,4C,D2,
4877008342,000001DA,false,Rx,0,8,C2,64,18,00,00,01,02,A9,
4877008623,0000055A,false,Rx,0,8,00,44,41,00,5F,43,5B,08,
4877014558,0000011A,false,Rx,0,8,11,40,00,AA,80,00,03,BE,
4877015605,000001DB,false,Rx,0,8,FF,A0,C0,6A,00,00,03,77,
4877015817,000001DC,false,Rx,0,8,6E,04,1F,FD,08,C0,C7,C0,
4877016030,000001D4,false,Rx,0,8,F7,07,00,00,87,46,00,70,
4877016304,000001F2,false,Rx,0,8,10,64,00,00,00,1E,02,0E,
4877016526,0000050C,false,Rx,0,6,00,00,00,03,5D,F4,00,00,
4877018343,000001DA,false,Rx,0,8,C2,64,18,00,00,01,03,2C,
4877023807,0000011A,false,Rx,0,8,11,40,00,AA,C0,00,00,73,
4877025572,000001DB,false,Rx,0,8,FF,A0,C0,6A,00,00,00,7D,
4877025844,000001DC,false,Rx,0,8,6E,04,1F,FD,0C,C4,C0,64,
4877026234,000001D4,false,Rx,0,8,F7,07,00,00,C7,46,00,B7,
4877026450,000001F2,false,Rx,0,8,10,64,00,00,00,1E,03,0F,
4877026730,00000284,false,Rx,0,8,00,00,00,00,00,00,4D,D3,
4877026943,000005A9,false,Rx,0,8,7A,17,20,10,83,E0,00,00,
4877028349,000001DA,false,Rx,0,8,C2,64,18,00,00,01,00,26,
4877038775,0000011A,false,Rx,0,8,11,40,00,55,00,00,01,65,
4877038839,000001DB,false,Rx,0,8,FF,A0,C0,6A,00,00,01,F8,
4877038902,000001DC,false,Rx,0,8,6E,04,1F,FD,01,08,D1,84,
4877038966,0000055B,false,Rx,0,8,AC,00,AA,00,E3,40,10,2C,
4877039035,000001D4,false,Rx,0,8,F7,07,00,00,07,46,00,7B,
4877039102,000001F2,false,Rx,0,8,10,64,00,00,00,1E,00,0C,
4877039165,0000050A,false,Rx,0,6,85,72,A0,1D,80,20,00,00,
4877039228,000001DA,false,Rx,0,8,C2,64,18,00,00,01,01,A3,
4877041112,0000056E,false,Rx,0,1,46,00,00,00,00,00,00,00,
4877044260,0000011A,false,Rx,0,8,11,40,00,55,40,00,02,A8,
4877045552,000001DB,false,Rx,0,8,FF,A0,C0,6A,00,00,02,F2,
4877045825,000001DC,false,Rx,0,8,6E,04,1F,FD,04,D8,C6,8F,
4877046579,0000054A,false,Rx,0,8,10,00,70,06,22,00,00,3E,
4877046851,000001D4,false,Rx,0,8,F7,07,00,00,47,46,00,BC,
4877047065,000001F2,false,Rx,0,8,10,64,00,00,00,1E,01,0D,
4877047341,00000284,false,Rx,0,8,00,00,00,00,00,00,4E,D4,
4877047563,0000054B,false,Rx,0,8,00,48,88,12,0C,00,00,00,
4877048368,000001DA,false,Rx,0,8,C2,64,18,00,00,01,02,A9,
4877048591,0000054C,false,Rx,0,8,8F,66,40,00,00,40,7D,00,
4877049580,0000054F,false,Rx,0,8,45,01,00,00,07,80,88,33,
4877054562,0000011A,false,Rx,0,8,11,40,00,AA,80,00,03,BE,
4877055552,000001DB,false,Rx,0,8,FF,A0,C0,6A,00,00,03,77,
4877055825,000001DC,false,Rx,0,8,6E,04,1F,FD,08,C0,C7,C0,
4877056991,000001D4,false,Rx,0,8,F7,07,00,00,87,46,00,70,
4877057204,000001F2,false,Rx,0,8,10,64,00,00,00,1E,02,0E,
4877057420,0000050B,false,Rx,0,6,00,00,06,C0,00,60,00,00,
4295284352,000001DA,false,Rx,0,8,C2,64,18,00,00,01,03,2C,
4295289767,0000011A,false,Rx,0,8,11,40,00,AA,C0,00,00,73,
4295291592,000001DB,false,Rx,0,8,FF,A0,C0,6A,00,00,00,7D,
4295291805,000001DC,false,Rx,0,8,6E,04,1F,FD,0C,C4,C0,64,
4295293208,000001D4,false,Rx,0,8,F7,07,00,00,C7,46,00,B7,
4295293427,000001F2,false,Rx,0,8,10,64,00,00,00,1E,03,0F,
4295293649,00000284,false,Rx,0,8,00,00,00,00,00,00,4F,D5,
4295294336,000001DA,false,Rx,0,8,C2,64,18,00,00,01,00,26,
4295300516,0000011A,false,Rx,0,8,11,40,00,55,00,00,01,65,
4295301565,000001DB,false,Rx,0,8,FF,A0,C0,6A,00,00,01,F8,
4295301837,000001DC,false,Rx,0,8,6E,04,1F,FD,01,08,D1,84,
4295303421,000001D4,false,Rx,0,8,F7,07,00,00,07,46,00,7B,
4295303642,000001F2,false,Rx,0,8,10,64,00,00,00,1E,00,0C,
4295304388,000001DA,false,Rx,0,8,C2,64,18,00,00,01,01,A3,
4295310207,0000011A,false,Rx,0,8,11,40,00,55,40,00,02,A8,
4295311556,000001DB,false,Rx,0,8,FF,A0,C0,6A,00,00,02,F2,
4295311829,000001DC,false,Rx,0,8,6E,04,1F,FD,04,D8,C6,8F,
4295313654,000001D4,false,Rx,0,8,F7,07,00,00,47,46,00,BC,
4295313927,000001F2,false,Rx,0,8,10,64,00,00,00,1E,01,0D,
4295314140,00000284,false,Rx,0,8,00,00,00,00,00,00,50,D6,
4295314414,000001DA,false,Rx,0,8,C2,64,18,00,00,01,02,A9,
4295314635,00000380,false,Rx,0,8,02,04,10,21,00,00,00,9E,
4295323030,000005BF,false,Rx,0,8,00,00,00,00,28,00,00,2B,
4295323094,0000011A,false,Rx,0,8,11,40,00,AA,80,00,03,BE,
4295323158,000001DB,false,Rx,0,8,FF,C0,C0,6A,00,00,03,84,
4295323221,000001DC,false,Rx,0,8,6E,04,1F,FD,08,C0,C7,C0,
4295323915,000001D4,false,Rx,0,8,F7,07,00,00,87,46,00,70,
4295324188,000001F2,false,Rx,0,8,10,64,00,00,00,1E,02,0E,
4295324405,000001DA,false,Rx,0,8,C2,64,18,00,00,01,03,2C,
4295324568,000005B9,false,Rx,0,5,40,78,51,2C,28,00,00,00,
4295329788,0000011A,false,Rx,0,8,11,40,00,AA,C0,00,00,73,
4295331552,000001DB,false,Rx,0,8,FF,C0,C0,6A,00,00,00,8E,
4295331824,000001DC,false,Rx,0,8,6E,04,1F,FD,0C,C4,C0,64,
4295334208,000001D4,false,Rx,0,8,F7,07,00,00,C7,46,00,B7,
4295334426,000001DA,false,Rx,0,8,C2,64,18,00,00,01,00,26,
4295334648,000001F2,false,Rx,0,8,10,64,00,00,00,1E,03,0F,
4295334921,00000284,false,Rx,0,8,00,00,00,00,00,00,51,D7,
4295335135,0000055A,false,Rx,0,8,00,44,41,00,5F,43,5B,08,
4295340480,0000011A,false,Rx,0,8,11,40,00,55,00,00,01,65,
4295341598,000001DB,false,Rx,0,8,FF,C0,C0,6A,00,00,01,0B,
4295341811,000001DC,false,Rx,0,8,6E,04,1F,FD,01,08,D1,84,
4295344344,000001DA,false,Rx,0,8,C2,64,18,00,00,01,01,A3,
4295344565,000001D4,false,Rx,0,8,F7,07,00,00,07,46,00,7B,
4295344838,000001F2,false,Rx,0,8,10,64,00,00,00,1E,00,0C,
4295345052,0000050C,false,Rx,0,6,00,00,00,00,5D,C8,00,00,
4295350213,0000011A,false,Rx,0,8,11,40,00,55,40,00,02,A8,
4295351567,000001DB,false,Rx,0,8,FF,C0,C0,6A,00,00,02,01,
4295351781,000001DC,false,Rx,0,8,6E,04,1F,FD,04,D8,C6,8F,
4295354321,000001DA,false,Rx,0,8,C2,64,18,00,00,01,02,A9,
4295354659,000001D4,false,Rx,0,8,F7,07,00,00,47,46,00,BC,
4295354873,000001F2,false,Rx,0,8,10,64,00,00,00,1E,01,0D,
4295355146,00000284,false,Rx,0,8,00,00,00,00,00,00,52,D8,
4295360486,0000011A,false,Rx,0,8,11,40,00,AA,80,00,03,BE,
4295361778,000001DB,false,Rx,0,8,FF,C0,C0,6A,00,00,03,84,
4295361992,000001DC,false,Rx,0,8,6E,04,1F,FD,08,C0,C7,C0,
4295362206,0000055B,false,Rx,0,8,AC,00,AA,00,E3,40,11,A9,
4295364341,000001DA,false,Rx,0,8,C2,64,18,00,00,01,03,2C,
4295364917,000001D4,false,Rx,0,8,F7,07,00,00,87,46,00,70,
4295365130,000001F2,false,Rx,0,8,10,64,00,00,00,1E,02,0E,
4295365345,0000050A,false,Rx,0,6,85,12,A0,1D,80,20,00,00,
4295367129,0000056E,false,Rx,0,1,46,00,00,00,00,00,00,00,
4295369696,0000011A,false,Rx,0,8,11,40,00,AA,C0,00,00,73,
4295371933,000001DB,false,Rx,0,8,FF,C0,C0,6A,00,00,00,8E,
4295372147,000001DC,false,Rx,0,8,6E,04,1F,FD,0C,C4,C0,64,
4295372365,000005BC,false,Rx,0,8,25,03,2A,39,91,04,1F,FF,
4295372587,000005C0,false,Rx,0,8,80,72,72,00,66,D0,00,00,
4295372860,0000054A,false,Rx,0,8,9E,00,70,06,22,00,00,3E,
4295380667,0000054B,false,Rx,0,8,00,48,88,12,0C,00,00,00,
4295380731,000001DA,false,Rx,0,8,C2,64,18,00,00,01,00,26,
4295380794,0000054C,false,Rx,0,8,8F,66,40,00,00,40,7D,00,
4295380857,000001D4,false,Rx,0,8,F7,07,00,00,C7,46,00,B7,
4295380920,000001F2,false,Rx,0,8,10,64,00,00,00,1E,03,0F,
4295380983,00000284,false,Rx,0,8,00,00,00,00,00,00,53,D9,
4295381047,0000054F,false,Rx,0,8,45,01,00,00,07,C0,88,33,
4295381110,0000011A,false,Rx,0,8,11,40,00,55,00,00,01,65,
4295381562,000001DB,false,Rx,0,8,FF,C0,C0,6A,00,00,01,0B,
4295381834,000001DC,false,Rx,0,8,6E,04,1F,FD,01,08,D1,84,
4295384312,000001DA,false,Rx,0,8,C2,64,18,00,00,01,01,A3,
4295385421,000001D4,false,Rx,0,8,F7,07,00,00,07,46,00,7B,
4295385642,000001F2,false,Rx,0,8,10,64,00,00,00,1E,00,0C,
4295385856,0000050B,false,Rx,0,6,00,00,06,C0,00,60,00,00,
4295390189,0000011A,false,Rx,0,8,11,40,00,55,40,00,02,A8,
4295391539,000001DB,false,Rx,0,8,FF,C0,C0,6A,00,00,02,01,
4295391812,000001DC,false,Rx,0,8,6E,04,1F,FD,04,D8,C6,8F,
4295394348,000001DA,false,Rx,0,8,C2,64,18,00,00,01,02,A9,
4295395640,000001D4,false,Rx,0,8,F7,07,00,00,47,46,00,BC,
4295395854,000001F2,false,Rx,0,8,10,64,00,00,00,1E,01,0D,
4295396126,00000284,false,Rx,0,8,00,00,00,00,00,00,54,DA,
4295400451,0000011A,false,Rx,0,8,11,40,00,AA,80,00,03,BE,
4295401560,000001DB,false,Rx,0,8,FF,C0,C0,6A,00,00,03,84,
4295401832,000001DC,false,Rx,0,8,6E,04,1F,FD,08,C0,C7,C0,
4295404366,000001DA,false,Rx,0,8,C2,64,18,00,00,01,03,2C,
4295405835,000001D4,false,Rx,0,8,F7,07,00,00,87,46,00,70,
4295406049,000001F2,false,Rx,0,8,10,64,00,00,00,1E,02,0E,
4295409724,0000011A,false,Rx,0,8,11,40,00,AA,C0,00,00,73,
4295411545,000001DB,false,Rx,0,8,FF,C0,C0,6A,00,00,00,8E,
4295411818,000001DC,false,Rx,0,8,6E,04,1F,FD,0C,C4,C0,64,
4295413878,00000380,false,Rx,0,8,02,04,10,21,00,00,00,AF,
4295414092,000005BF,false,Rx,0,8,00,00,00,00,28,00,00,3C,
4295414366,000001DA,false,Rx,0,8,C2,64,18,00,00,01,00,26,
4295416130,000001D4,false,Rx,0,8,F7,07,00,00,C7,46,00,B7,
4295416348,000001F2,false,Rx,0,8,10,64,00,00,00,1E,03,0F,
4295416629,00000284,false,Rx,0,8,00,00,00,00,00,00,55,DB,
4295420471,0000011A,false,Rx,0,8,11,40,00,55,00,00,01,65,
4295421579,000001DB,false,Rx,0,8,FF,C0,C0,6A,00,00,01,0B,
4295421793,000001DC,false,Rx,0,8,6E,04,1F,FD,01,08,D1,84,
4295424328,000001DA,false,Rx,0,8,C2,64,18,00,00,01,01,A3,
4295426330,000001D4,false,Rx,0,8,F7,07,00,00,07,46,00,7B,
4295426544,000001F2,false,Rx,0,8,10,64,00,00,00,1E,00,0C,
4295430148,0000011A,false,Rx,0,8,11,40,00,55,40,00,02,A8,
4295437998,000001DB,false,Rx,0,8,FF,A0,C0,6A,00,00,02,F2,
4295438063,000001DC,false,Rx,0,8,6E,04,1F,FD,04,D8,C6,8F,
4295438126,000001DA,false,Rx,0,8,C2,64,18,00,00,01,02,A9,
4295438189,0000055A,false,Rx,0,8,00,44,41,00,5F,43,5B,08,
4295438252,000001D4,false,Rx,0,8,F7,07,00,00,47,46,00,BC,
4295438319,000001F2,false,Rx,0,8,10,64,00,00,00,1E,01,0D,
4295438382,00000284,false,Rx,0,8,00,00,00,00,00,00,56,DC,
4295440444,0000011A,false,Rx,0,8,11,40,00,AA,80,00,03,BE,
4295441558,000001DB,false,Rx,0,8,FF,A0,C0,6A,00,00,03,77,
4295441772,000001DC,false,Rx,0,8,6E,04,1F,FD,08,C0,C7,C0,
4295444304,000001DA,false,Rx,0,8,C2,64,18,00,00,01,03,2C,
4295446847,000001D4,false,Rx,0,8,F7,07,00,00,87,46,00,70,
4295447061,000001F2,false,Rx,0,8,10,64,00,00,00,1E,02,0E,
4295447274,0000050C,false,Rx,0,6,00,00,00,01,5D,5F,00,00,
4295449643,0000011A,false,Rx,0,8,11,40,00,AA,C0,00,00,73,
4295451578,000001DB,false,Rx,0,8,FF,C0,C0,6A,00,00,00,8E,
4295451791,000001DC,false,Rx,0,8,6E,04,1F,FD,0C,C4,C0,64,
4295454327,000001DA,false,Rx,0,8,C2,64,18,00,00,01,00,26,
4295457043,000001D4,false,Rx,0,8,F7,07,00,00,C7,46,00,B7,
4295457319,000001F2,false,Rx,0,8,10,64,00,00,00,1E,03,0F,
4295457539,00000284,false,Rx,0,8,00,00,00,00,00,00,57,DD,
4295460433,0000011A,false,Rx,0,8,11,40,00,55,00,00,01,65,
4295461745,000001DB,false,Rx,0,8,FF,C0,C0,6A,00,00,01,0B,
4295461958,000001DC,false,Rx,0,8,6E,04,1F,FD,01,08,D1,84,
4295462231,0000055B,false,Rx,0,8,AC,00,AA,00,E3,40,12,A3,
4295464353,000001DA,false,Rx,0,8,C2,64,18,00,00,01,01,A3,
4295467011,0000056E,false,Rx,0,1,46,00,00,00,00,00,00,00,
4295467343,000001D4,false,Rx,0,8,F7,07,00,00,07,46,00,7B,
4295467564,000001F2,false,Rx,0,8,10,64,00,00,00,1E,00,0C,
4295467777,0000050A,false,Rx,0,6,85,32,A0,1D,80,20,00,00,
4295470117,0000011A,false,Rx,0,8,11,40,00,55,40,00,02,A8,
4295471582,000001DB,false,Rx,0,8,FF,C0,C0,6A,00,00,02,01,
4295471796,000001DC,false,Rx,0,8,6E,04,1F,FD,04,D8,C6,8F,
4295472789,0000054A,false,Rx,0,8,10,00,70,06,22,00,00,3E,
4295473718,0000054B,false,Rx,0,8,00,48,88,12,0C,00,00,00,
4295474346,000001DA,false,Rx,0,8,C2,64,18,00,00,01,02,A9,
4295474745,0000054C,false,Rx,0,8,8F,66,40,00,00,40,7D,00,
4295475735,0000054F,false,Rx,0,8,45,01,00,00,07,00,88,33,
4295477622,000001D4,false,Rx,0,8,F7,07,00,00,47,46,00,BC,
4295477835,000001F2,false,Rx,0,8,10,64,00,00,00,1E,01,0D,
4295478108,00000284,false,Rx,0,8,00,00,00,00,00,00,58,DE,
4295480407,0000011A,false,Rx,0,8,11,40,00,AA,80,00,03,BE,
4295481581,000001DB,false,Rx,0,8,FF,C0,C0,6A,00,00,03,84,
4295481794,000001DC,false,Rx,0,8,6E,04,1F,FD,08,C0,C7,C0,
4295484333,000001DA,false,Rx,0,8,C2,64,18,00,00,01,03,2C,
4295487786,000001D4,false,Rx,0,8,F7,07,00,00,87,46,00,70,
4295488000,000001F2,false,Rx,0,8,10,64,00,00,00,1E,02,0E,
4295496077,0000050B,false,Rx,0,6,00,00,06,C0,00,60,00,00,
4295496141,0000011A,false,Rx,0,8,11,40,00,AA,C0,00,00,73,
4295496204,000001DB,false,Rx,0,8,FF,C0,C0,6A,00,00,00,8E,
4295496267,000001DC,false,Rx,0,8,6E,04,1F,FD,0C,C4,C0,64,
4295496335,000001DA,false,Rx,0,8,C2,64,18,00,00,01,00,26,
4295498041,000001D4,false,Rx,0,8,F7,07,00,00,C7,46,00,B7,
4295498316,000001F2,false,Rx,0,8,10,64,00,00,00,1E,03,0F,
4295498531,00000284,false,Rx,0,8,00,00,00,00,00,00,59,DF,
4295500407,0000011A,false,Rx,0,8,11,40,00,55,00,00,01,65,
4295501581,000001DB,false,Rx,0,8,FF,C0,C0,6A,00,00,01,0B,
4295501793,000001DC,false,Rx,0,8,6E,04,1F,FD,01,08,D1,84,
4295504327,000001DA,false,Rx,0,8,C2,64,18,00,00,01,01,A3,
4295508294,000001D4,false,Rx,0,8,F7,07,00,00,07,46,00,7B,
4295508517,000001F2,false,Rx,0,8,10,64,00,00,00,1E,00,0C,
4295510097,0000011A,false,Rx,0,8,11,40,00,55,40,00,02,A8,
4295511570,000001DB,false,Rx,0,8,FF,C0,C0,6A,00,00,02,01,
4295511784,000001DC,false,Rx,0,8,6E,04,1F,FD,04,D8,C6,8F,
4295513965,00000380,false,Rx,0,8,02,04,10,21,00,00,00,B0,
4295514237,000005BF,false,Rx,0,8,00,00,00,00,28,00,00,09,
4295514452,000001DA,false,Rx,0,8,C2,64,18,00,00,01,02,A9,
4295518546,000001D4,false,Rx,0,8,F7,07,00,00,47,46,00,BC,
4295518818,000001F2,false,Rx,0,8,10,64,00,00,00,1E,01,0D,
4295519030,00000284,false,Rx,0,8,00,00,00,00,00,00,5A,E0,
4295520377,0000011A,false,Rx,0,8,11,40,00,AA,80,00,03,BE,
4295521552,000001DB,false,Rx,0,8,FF,C0,C0,6A,00,00,03,84,
4295521765,000001DC,false,Rx,0,8,6E,04,1F,FD,08,C0,C7,C0,
4295524300,000001DA,false,Rx,0,8,C2,64,18,00,00,01,03,2C,
4295528752,000001D4,false,Rx,0,8,F7,07,00,00,87,46,00,70,
4295528966,000001F2,false,Rx,0,8,10,64,00,00,00,1E,02,0E,
4295529602,0000011A,false,Rx,0,8,11,40,00,AA,C0,00,00,73,
4295531546,000001DB,false,Rx,0,8,FF,C0,C0,6A,00,00,00,8E,
4295531818,000001DC,false,Rx,0,8,6E,04,1F,FD,0C,C4,C0,64,
4295534352,000001DA,false,Rx,0,8,C2,64,18,00,00,01,00,26,
4295534573,0000055A,false,Rx,0,8,00,44,41,00,5F,43,5B,08,
4295539075,000001D4,false,Rx,0,8,F7,07,00,00,C7,46,00,B7,
4295539289,000001F2,false,Rx,0,8,10,64,00,00,00,1E,03,0F,
4295539570,00000284,false,Rx,0,8,00,00,00,00,00,00,5B,E1,
4295540375,0000011A,false,Rx,0,8,11,40,00,55,00,00,01,65,
4295541551,000001DB,false,Rx,0,8,FF,C0,C0,6A,00,00,01,0B,
4295541764,000001DC,false,Rx,0,8,6E,04,1F,FD,01,08,D1,84,
4295544301,000001DA,false,Rx,0,8,C2,64,18,00,00,01,01,A3,
4295552998,000001D4,false,Rx,0,8,F7,07,00,00,07,46,00,7B,
4295553062,000001F2,false,Rx,0,8,10,64,00,00,00,1E,00,0C,
4295553125,0000050C,false,Rx,0,6,00,00,00,02,5D,63,00,00,
4295553189,0000011A,false,Rx,0,8,11,40,00,55,40,00,02,A8,
4295553252,000001DB,false,Rx,0,8,FF,A0,C0,6A,00,00,02,F2,
4295553316,000001DC,false,Rx,0,8,6E,04,1F,FD,04,D8,C6,8F,
4295554307,000001DA,false,Rx,0,8,C2,64,18,00,00,01,02,A9,
4295559467,000001D4,false,Rx,0,8,F7,07,00,00,47,46,00,BC,
4295559747,000001F2,false,Rx,0,8,10,64,00,00,00,1E,01,0D,
4295559960,00000284,false,Rx,0,8,00,00,00,00,00,00,5C,E2,
4295560355,0000011A,false,Rx,0,8,11,40,00,AA,80,00,03,BE,
4295561708,000001DB,false,Rx,0,8,FF,A0,C0,6A,00,00,03,77,
4295561981,000001DC,false,Rx,0,8,6E,04,1F,FD,08,C0,C7,C0,
4295562194,0000055B,false,Rx,0,8,AC,00,55,00,E3,40,13,61,
4295564322,000001DA,false,Rx,0,8,C2,64,18,00,00,01,03,2C,
4295567039,0000056E,false,Rx,0,1,46,00,00,00,00,00,00,00,
4295569655,0000011A,false,Rx,0,8,11,40,00,AA,C0,00,00,73,
4295569869,000001D4,false,Rx,0,8,F7,07,00,00,87,46,00,70,
4295570081,000001F2,false,Rx,0,8,10,64,00,00,00,1E,02,0E,
4295570294,0000050A,false,Rx,0,6,85,52,A0,1D,80,20,00,00,
4295571549,000001DB,false,Rx,0,8,FF,A0,C0,6A,00,00,00,7D,
4295571771,000001DC,false,Rx,0,8,6E,04,1F,FD,0C,C4,C0,64,
4295572820,0000054A,false,Rx,0,8,9E,00,70,06,22,00,00,3E,
4295573822,0000054B,false,Rx,0,8,00,48,88,12,0C,00,00,00,
4295574335,000001DA,false,Rx,0,8,C2,64,18,00,00,01,00,26,
4295574851,0000054C,false,Rx,0,8,8F,66,40,00,00,40,7D,00,
4295575842,0000054F,false,Rx,0,8,45,01,00,00,07,40,88,33,
4295580049,000001D4,false,Rx,0,8,F7,07,00,00,C7,46,00,B7,
4295580262,000001F2,false,Rx,0,8,10,64,00,00,00,1E,03,0F,
4295580545,0000011A,false,Rx,0,8,11,40,00,55,00,00,01,65,
4295580759,00000284,false,Rx,0,8,00,00,00,00,00,00,5D,E3,
4295581564,000001DB,false,Rx,0,8,FF,A0,C0,6A,00,00,01,F8,
4295581785,000001DC,false,Rx,0,8,6E,04,1F,FD,01,08,D1,84,
4295584289,000001DA,false,Rx,0,8,C2,64,18,00,00,01,01,A3,
4295590037,0000011A,false,Rx,0,8,11,40,00,55,40,00,02,A8,
4295590313,000001D4,false,Rx,0,8,F7,07,00,00,07,46,00,7B,
4295590533,000001F2,false,Rx,0,8,10,64,00,00,00,1E,00,0C,
4295590746,0000050B,false,Rx,0,6,00,00,06,C0,00,60,00,00,
4295591549,000001DB,false,Rx,0,8,FF,C0,C0,6A,00,00,02,01,
4295591771,000001DC,false,Rx,0,8,6E,04,1F,FD,04,D8,C6,8F,
4295594307,000001DA,false,Rx,0,8,C2,64,18,00,00,01,02,A9,
4295600361,0000011A,false,Rx,0,8,11,40,00,AA,80,00,03,BE,
4295600583,000001D4,false,Rx,0,8,F7,07,00,00,47,46,00,BC,
4295600855,000001F2,false,Rx,0,8,10,64,00,00,00,1E,01,0D,
4295601069,00000284,false,Rx,0,8,00,00,00,00,00,00,5E,E4,
4295601577,000001DB,false,Rx,0,8,FF,A0,C0,6A,00,00,03,77,
4295601798,000001DC,false,Rx,0,8,6E,04,1F,FD,08,C0,C7,C0,
4295611085,000001DA,false,Rx,0,8,C2,64,18,00,00,01,03,2C,
4295611149,0000011A,false,Rx,0,8,11,40,00,AA,C0,00,00,73,
4295611244,000001D4,false,Rx,0,8,F7,07,00,00,87,46,00,70,
4295611310,000001F2,false,Rx,0,8,10,64,00,00,00,1E,02,0E,
4295611373,00000284,false,Rx,0,8,00,00,00,00,00,00,5F,E5,
4295611534,000001DB,false,Rx,0,8,FF,C0,C0,6A,00,00,00,8E,
4295611807,000001DC,false,Rx,0,8,6E,04,1F,FD,0C,C4,C0,64,
4295614104,00000380,false,Rx,0,8,02,04,10,21,00,00,00,8D,
4295614322,000005BF,false,Rx,0,8,00,00,00,00,28,00,00,1A,
4295614596,000001DA,false,Rx,0,8,C2,64,18,00,00,01,00,26,
4295620367,0000011A,false,Rx,0,8,11,40,00,55,00,00,01,65,
4295621001,000001D4,false,Rx,0,8,F7,07,00,00,C7,46,00,B7,
4295621214,000001F2,false,Rx,0,8,10,64,00,00,00,1E,03,0F,
4295621549,000001DB,false,Rx,0,8,FF,C0,C0,6A,00,00,01,0B,
4295621821,000001DC,false,Rx,0,8,6E,04,1F,FD,01,08,D1,84,
4295624298,000001DA,false,Rx,0,8,C2,64,18,00,00,01,01,A3,
4295630056,0000011A,false,Rx,0,8,11,40,00,55,40,00,02,A8,
4295631222,000001D4,false,Rx,0,8,F7,07,00,00,07,46,00,7B,
4295631439,000001F2,false,Rx,0,8,10,64,00,00,00,1E,00,0C,
4295631659,000001DB,false,Rx,0,8,FF,C0,C0,6A,00,00,02,01,
4295631932,000001DC,false,Rx,0,8,6E,04,1F,FD,04,D8,C6,8F,
4295632146,00000284,false,Rx,0,8,00,00,00,00,00,00,60,E6,
4295634327,000001DA,false,Rx,0,8,C2,64,18,00,00,01,02,A9,
4295634548,0000055A,false,Rx,0,8,00,44,41,00,5F,43,5B,08,
4295640361,0000011A,false,Rx,0,8,11,40,00,AA,80,00,03,BE,
4295641470,000001D4,false,Rx,0,8,F7,07,00,00,47,46,00,BC,
4295641691,000001DB,false,Rx,0,8,FF,A0,C0,6A,00,00,03,77,
4295641963,000001DC,false,Rx,0,8,6E,04,1F,FD,08,C0,C7,C0,
4295642176,000001F2,false,Rx,0,8,10,64,00,00,00,1E,01,0D,
4295644298,000001DA,false,Rx,0,8,C2,64,18,00,00,01,03,2C,
4295649583,0000011A,false,Rx,0,8,11,40,00,AA,C0,00,00,73,
4295651523,000001DB,false,Rx,0,8,FF,A0,C0,6A,00,00,00,7D,
4295651796,000001D4,false,Rx,0,8,F7,07,00,00,87,46,00,70,
4295652009,000001DC,false,Rx,0,8,6E,04,1F,FD,0C,C4,C0,64,
4295652282,000001F2,false,Rx,0,8,10,64,00,00,00,1E,02,0E,
4295652497,00000284,false,Rx,0,8,00,00,00,00,00,00,61,E7,
4295652718,0000050C,false,Rx,0,6,00,00,00,03,B2,9A,00,00,
4295654301,000001DA,false,Rx,0,8,C2,64,18,00,00,01,00,26,
4295660298,0000011A,false,Rx,0,8,11,40,00,55,00,00,01,65,
4295667639,000001DB,false,Rx,0,8,FF,A0,C0,6A,00,00,01,F8,
4295667704,000001D4,false,Rx,0,8,F7,07,00,00,C7,46,00,B7,
4295667767,000001DC,false,Rx,0,8,6E,04,1F,FD,01,08,D1,84,
4295667830,000001F2,false,Rx,0,8,10,64,00,00,00,1E,03,0F,
4295667893,0000055B,false,Rx,0,8,AC,00,55,00,E3,40,10,6B,
4295667956,000001DA,false,Rx,0,8,C2,64,18,00,00,01,01,A3,
4295668019,0000056E,false,Rx,0,1,46,00,00,00,00,00,00,00,
4295670267,0000011A,false,Rx,0,8,11,40,00,55,40,00,02,A8,
4295671564,000001DB,false,Rx,0,8,FF,A0,C0,6A,00,00,02,F2,
4295671778,000001DC,false,Rx,0,8,6E,04,1F,FD,04,D8,C6,8F,
4295672227,000001D4,false,Rx,0,8,F7,07,00,00,07,46,00,7B,
4295672501,000001F2,false,Rx,0,8,10,64,00,00,00,1E,00,0C,
4295672722,00000284,false,Rx,0,8,00,00,00,00,00,00,62,E8,
4295672941,0000050A,false,Rx,0,6,85,72,A0,1D,80,20,00,00,
4295673167,0000054A,false,Rx,0,8,10,00,70,06,22,00,00,3E,
4295673920,0000054B,false,Rx,0,8,00,48,88,12,0C,00,00,00,
4295674313,000001DA,false,Rx,0,8,C2,64,18,00,00,01,02,A9,
4295674897,0000054C,false,Rx,0,8,8F,66,40,00,00,40,7D,00,
4295675891,0000054F,false,Rx,0,8,45,01,00,00,07,80,88,33,
4295680335,0000011A,false,Rx,0,8,11,40,00,AA,80,00,03,BE,
4295681567,000001DB,false,Rx,0,8,FF,A0,C0,6A,00,00,03,77,
4295681781,000001DC,false,Rx,0,8,6E,04,1F,FD,08,C0,C7,C0,
4295682470,000001D4,false,Rx,0,8,F7,07,00,00,47,46,00,BC,
4295682691,000001F2,false,Rx,0,8,10,64,00,00,00,1E,01,0D,
4295684333,000001DA,false,Rx,0,8,C2,64,18,00,00,01,03,2C,
4295689512,0000011A,false,Rx,0,8,11,40,00,AA,C0,00,00,73,
4295691570,000001DB,false,Rx,0,8,FF,A0,C0,6A,00,00,00,7D,
4295691784,000001DC,false,Rx,0,8,6E,04,1F,FD,0C,C4,C0,64,
4295692657,000001D4,false,Rx,0,8,F7,07,00,00,87,46,00,70,
4295692930,000001F2,false,Rx,0,8,10,64,00,00,00,1E,02,0E,
4295693143,00000284,false,Rx,0,8,00,00,00,00,00,00,63,E9,
4295693360,0000050B,false,Rx,0,6,00,00,06,C0,00,60,00,00,
4295694289,000001DA,false,Rx,0,8,C2,64,18,00,00,01,00,26,
4295700285,0000011A,false,Rx,0,8,11,40,00,55,00,00,01,65,
4295701520,000001DB,false,Rx,0,8,FF,A0,C0,6A,00,00,01,F8,
4295701793,000001DC,false,Rx,0,8,6E,04,1F,FD,01,08,D1,84,
4295702900,000001D4,false,Rx,0,8,F7,07,00,00,C7,46,00,B7,
4295703113,000001F2,false,Rx,0,8,10,64,00,00,00,1E,03,0F,
4295704280,000001DA,false,Rx,0,8,C2,64,18,00,00,01,01,A3,
4295709978,0000011A,false,Rx,0,8,11,40,00,55,40,00,02,A8,
4295711500,000001DB,false,Rx,0,8,FF,A0,C0,6A,00,00,02,F2,
4295711781,000001DC,false,Rx,0,8,6E,04,1F,FD,04,D8,C6,8F,
4295713185,000001D4,false,Rx,0,8,F7,07,00,00,07,46,00,7B,
4295713399,000001F2,false,Rx,0,8,10,64,00,00,00,1E,00,0C,
4295713621,00000284,false,Rx,0,8,00,00,00,00,00,00,64,EA,
4295714189,00000380,false,Rx,0,8,02,04,10,21,00,00,00,9E,
4295714408,000001DA,false,Rx,0,8,C2,64,18,00,00,01,02,A9,
4295714629,000005BF,false,Rx,0,8,00,00,00,00,28,00,00,2B,
4295725883,0000011A,false,Rx,0,8,11,40,00,AA,80,00,03,BE,
4295725947,000001DB,false,Rx,0,8,FF,A0,C0,6A,00,00,03,77,
4295726011,000001DC,false,Rx,0,8,6E,04,1F,FD,08,C0,C7,C0,
4295726074,000001D4,false,Rx,0,8,F7,07,00,00,47,46,00,BC,
4295726137,000001F2,false,Rx,0,8,10,64,00,00,00,1E,01,0D,
4295726200,000001DA,false,Rx,0,8,C2,64,18,00,00,01,03,2C,
4295729576,0000011A,false,Rx,0,8,11,40,00,AA,C0,00,00,73,
4295731519,000001DB,false,Rx,0,8,FF,A0,C0,6A,00,00,00,7D,
4295731791,000001DC,false,Rx,0,8,6E,04,1F,FD,0C,C4,C0,64,
4295733618,000001D4,false,Rx,0,8,F7,07,00,00,87,46,00,70,
4295733890,000001F2,false,Rx,0,8,10,64,00,00,00,1E,02,0E,
4295734103,00000284,false,Rx,0,8,00,00,00,00,00,00,65,EB,
4295734374,000001DA,false,Rx,0,8,C2,64,18,00,00,01,00,26,
4295734596,0000055A,false,Rx,0,8,00,44,41,00,5F,43,5B,08,
4295740286,0000011A,false,Rx,0,8,11,40,00,55,00,00,01,65,
4295741519,000001DB,false,Rx,0,8,FF,A0,C0,6A,00,00,01,F8,
4295741791,000001DC,false,Rx,0,8,6E,04,1F,FD,01,08,D1,84,
4295743912,000001D4,false,Rx,0,8,F7,07,00,00,C7,46,00,B7,
4295744125,000001F2,false,Rx,0,8,10,64,00,00,00,1E,03,0F,
4295744399,000001DA,false,Rx,0,8,C2,64,18,00,00,01,01,A3,
4295749978,0000011A,false,Rx,0,8,11,40,00,55,40,00,02,A8,
4295751567,000001DB,false,Rx,0,8,FF,C0,C0,6A,00,00,02,01,
4295751781,000001DC,false,Rx,0,8,6E,04,1F,FD,04,D8,C6,8F,
4295754201,000001D4,false,Rx,0,8,F7,07,00,00,07,46,00,7B,
4295754416,000001DA,false,Rx,0,8,C2,64,18,00,00,01,02,A9,
4295754696,000001F2,false,Rx,0,8,10,64,00,00,00,1E,00,0C,
4295754910,00000284,false,Rx,0,8,00,00,00,00,00,00,66,EC,
4295755123,0000050C,false,Rx,0,6,00,00,00,00,B2,A6,00,00,
4295760285,0000011A,false,Rx,0,8,11,40,00,AA,80,00,03,BE,
4295761696,000001DB,false,Rx,0,8,FF,C0,C0,6A,00,00,03,84,
4295761969,000001DC,false,Rx,0,8,6E,04,1F,FD,08,C0,C7,C0,
4295762183,0000055B,false,Rx,0,8,AC,00,55,00,E3,40,11,EE,
4295764308,000001DA,false,Rx,0,8,C2,64,18,00,00,01,03,2C,
4295764529,000001D4,false,Rx,0,8,F7,07,00,00,47,46,00,BC,
4295764743,000001F2,false,Rx,0,8,10,64,00,00,00,1E,01,0D,
4295765015,000005A9,false,Rx,0,8,7A,17,20,10,83,E0,00,00,
4295767254,0000056E,false,Rx,0,1,46,00,00,00,00,00,00,00,
4295769514,0000011A,false,Rx,0,8,11,40,00,AA,C0,00,00,73,
4295771516,000001DB,false,Rx,0,8,FF,C0,C0,6A,00,00,00,8E,
4295771789,000001DC,false,Rx,0,8,6E,04,1F,FD,0C,C4,C0,64,
4295773015,0000054A,false,Rx,0,8,9E,00,70,06,22,00,00,3E,
4295774006,0000054B,false,Rx,0,8,00,48,88,12,0C,00,00,00,
4295774278,000001DA,false,Rx,0,8,C2,64,18,00,00,01,00,26,
4295774677,000001D4,false,Rx,0,8,F7,07,00,00,87,46,00,70,
4295774891,000001F2,false,Rx,0,8,10,64,00,00,00,1E,02,0E,
4295775191,00000284,false,Rx,0,8,00,00,00,00,00,00,67,ED,
4295775349,0000050A,false,Rx,0,6,85,12,A0,1D,80,20,00,00,
4295775628,0000054C,false,Rx,0,8,8F,66,40,00,00,40,7D,00,
4295784141,0000054F,false,Rx,0,8,45,01,00,00,07,C0,88,33,
4295784205,0000011A,false,Rx,0,8,11,40,00,55,00,00,01,65,
4295784301,000001DB,false,Rx,0,8,FF,C0,C0,6A,00,00,01,0B,
4295784365,000001DC,false,Rx,0,8,6E,04,1F,FD,01,08,D1,84,
4295784428,000001DA,false,Rx,0,8,C2,64,18,00,00,01,01,A3,
4295784885,000001D4,false,Rx,0,8,F7,07,00,00,C7,46,00,B7,
4295785097,000001F2,false,Rx,0,8,10,64,00,00,00,1E,03,0F,
4295789918,0000011A,false,Rx,0,8,11,40,00,55,40,00,02,A8,
4295791501,000001DB,false,Rx,0,8,FF,C0,C0,6A,00,00,02,01,
4295791781,000001DC,false,Rx,0,8,6E,04,1F,FD,04,D8,C6,8F,
4295794260,000001DA,false,Rx,0,8,C2,64,18,00,00,01,02,A9,
4295795131,000001D4,false,Rx,0,8,F7,07,00,00,07,46,00,7B,
4295795352,000001F2,false,Rx,0,8,10,64,00,00,00,1E,00,0C,
4295795573,00000284,false,Rx,0,8,00,00,00,00,00,00,68,EE,
4295795785,0000050B,false,Rx,0,6,00,00,06,C0,00,60,00,00,
4295800225,0000011A,false,Rx,0,8,11,40,00,AA,80,00,03,BE,
4295801520,000001DB,false,Rx,0,8,FF,C0,C0,6A,00,00,03,84,
4295801792,000001DC,false,Rx,0,8,6E,04,1F,FD,08,C0,C7,C0,
4295804266,000001DA,false,Rx,0,8,C2,64,18,00,00,01,03,2C,
4295805319,000001D4,false,Rx,0,8,F7,07,00,00,47,46,00,BC,
4295805592,000001F2,false,Rx,0,8,10,64,00,00,00,1E,01,0D,
4295809498,0000011A,false,Rx,0,8,11,40,00,AA,C0,00,00,73,
4295811497,000001DB,false,Rx,0,8,FF,C0,C0,6A,00,00,00,8E,
4295811777,000001DC,false,Rx,0,8,6E,04,1F,FD,0C,C4,C0,64,
4295814254,000001DA,false,Rx,0,8,C2,64,18,00,00,01,00,26,
4295814537,00000380,false,Rx,0,8,02,04,10,21,00,00,00,AF,
4295814750,000005BF,false,Rx,0,8,00,00,00,00,28,00,00,3C,
4295815623,000001D4,false,Rx,0,8,F7,07,00,00,87,46,00,70,
4295815836,000001F2,false,Rx,0,8,10,64,00,00,00,1E,02,0E,
4295816109,00000284,false,Rx,0,8,00,00,00,00,00,00,69,EF,
4295820254,0000011A,false,Rx,0,8,11,40,00,55,00,00,01,65,
4295821550,000001DB,false,Rx,0,8,FF,C0,C0,6A,00,00,01,0B,
4295821764,000001DC,false,Rx,0,8,6E,04,1F,FD,01,08,D1,84,
4295824298,000001DA,false,Rx,0,8,C2,64,18,00,00,01,01,A3,
4295825829,000001D4,false,Rx,0,8,F7,07,00,00,C7,46,00,B7,
4295826042,000001F2,false,Rx,0,8,10,64,00,00,00,1E,03,0F,
4295829893,0000011A,false,Rx,0,8,11,40,00,55,40,00,02,A8,
4295831545,000001DB,false,Rx,0,8,FF,C0,C0,6A,00,00,02,01,
4295831757,000001DC,false,Rx,0,8,6E,04,1F,FD,04,D8,C6,8F,
4295840713,000001DA,false,Rx,0,8,C2,64,18,00,00,01,02,A9,
4295840777,0000055A,false,Rx,0,8,00,44,41,00,5F,43,5B,08,
4295840840,000001D4,false,Rx,0,8,F7,07,00,00,07,46,00,7B,
4295840903,000001F2,false,Rx,0,8,10,64,00,00,00,1E,00,0C,
4295840966,00000284,false,Rx,0,8,00,00,00,00,00,00,6A,F0,
4295841030,000005B9,false,Rx,0,5,40,78,51,2C,28,00,00,00,
4295841093,0000011A,false,Rx,0,8,11,40,00,AA,80,00,03,BE,
4295841553,000001DB,false,Rx,0,8,FF,C0,C0,6A,00,00,03,84,
4295841767,000001DC,false,Rx,0,8,6E,04,1F,FD,08,C0,C7,C0,
4295844300,000001DA,false,Rx,0,8,C2,64,18,00,00,01,03,2C,
4295846304,000001D4,false,Rx,0,8,F7,07,00,00,47,46,00,BC,
4295846584,000001F2,false,Rx,0,8,10,64,00,00,00,1E,01,0D,
4295849414,0000011A,false,Rx,0,8,11,40,00,AA,C0,00,00,73,
4295851545,000001DB,false,Rx,0,8,FF,C0,C0,6A,00,00,00,8E,
4295851759,000001DC,false,Rx,0,8,6E,04,1F,FD,0C,C4,C0,64,
4295854291,000001DA,false,Rx,0,8,C2,64,18,00,00,01,00,26,
4295856598,000001D4,false,Rx,0,8,F7,07,00,00,87,46,00,70,
4295856812,000001F2,false,Rx,0,8,10,64,00,00,00,1E,02,0E,
4295857084,00000284,false,Rx,0,8,00,00,00,00,00,00,6B,F1,
4295857298,0000050C,false,Rx,0,6,00,00,00,01,B2,31,00,00,
4295860195,0000011A,false,Rx,0,8,11,40,00,55,00,00,01,65,
4295861686,000001DB,false,Rx,0,8,FF,C0,C0,6A,00,00,01,0B,
4295861959,000001DC,false,Rx,0,8,6E,04,1F,FD,01,08,D1,84,
4295862173,0000055B,false,Rx,0,8,AC,00,55,00,E3,40,12,E4,
4295864292,000001DA,false,Rx,0,8,C2,64,18,00,00,01,01,A3,
4295866835,000001D4,false,Rx,0,8,F7,07,00,00,C7,46,00,B7,
4295867049,000001F2,false,Rx,0,8,10,64,00,00,00,1E,03,0F,
4295867203,0000056E,false,Rx,0,1,46,00,00,00,00,00,00,00,
4295869875,0000011A,false,Rx,0,8,11,40,00,55,40,00,02,A8,
4295871876,000001DB,false,Rx,0,8,FF,C0,C0,6A,00,00,02,01,
4295872088,000001DC,false,Rx,0,8,6E,04,1F,FD,04,D8,C6,8F,
4295872301,000005BC,false,Rx,0,8,25,03,29,39,90,05,20,78,
4295872581,000005C0,false,Rx,0,8,C0,72,72,00,66,D0,00,00,
4295873089,0000054A,false,Rx,0,8,10,00,70,06,22,00,00,3E,
4295874081,0000054B,false,Rx,0,8,00,48,88,12,0C,00,00,00,
4295874294,000001DA,false,Rx,0,8,C2,64,18,00,00,01,02,A9,
4295875065,0000054C,false,Rx,0,8,8F,66,40,00,00,40,7D,00,
4295876055,0000054F,false,Rx,0,8,45,01,00,00,07,00,88,33,
4295877162,000001D4,false,Rx,0,8,F7,07,00,00,07,46,00,7B,
4295877377,000001F2,false,Rx,0,8,10,64,00,00,00,1E,00,0C,
4295877599,00000284,false,Rx,0,8,00,00,00,00,00,00,6C,F2,
4295877813,0000050A,false,Rx,0,6,85,32,A0,1D,80,20,00,00,
4295880204,0000011A,false,Rx,0,8,11,40,00,AA,80,00,03,BE,
4295881492,000001DB,false,Rx,0,8,FF,A0,C0,6A,00,00,03,77,
4295881772,000001DC,false,Rx,0,8,6E,04,1F,FD,08,C0,C7,C0,
4295884247,000001DA,false,Rx,0,8,C2,64,18,00,00,01,03,2C,
4295887280,000001D4,false,Rx,0,8,F7,07,00,00,47,46,00,BC,
4295887495,000001F2,false,Rx,0,8,10,64,00,00,00,1E,01,0D,
4295889439,0000011A,false,Rx,0,8,11,40,00,AA,C0,00,00,73,
4295899143,000001DB,false,Rx,0,8,FF,C0,C0,6A,00,00,00,8E,
4295899207,000001DC,false,Rx,0,8,6E,04,1F,FD,0C,C4,C0,64,
4295899271,000001DA,false,Rx,0,8,C2,64,18,00,00,01,00,26,
4295899335,000001D4,false,Rx,0,8,F7,07,00,00,87,46,00,70,
4295899399,000001F2,false,Rx,0,8,10,64,00,00,00,1E,02,0E,
4295899462,00000284,false,Rx,0,8,00,00,00,00,00,00,6D,F3,
4295899533,0000050B,false,Rx,0,6,00,00,06,C0,00,60,00,00,
4295900159,0000011A,false,Rx,0,8,11,40,00,55,00,00,01,65,
4295901512,000001DB,false,Rx,0,8,FF,C0,C0,6A,00,00,01,0B,
4295901725,000001DC,false,Rx,0,8,6E,04,1F,FD,01,08,D1,84,
4295904260,000001DA,false,Rx,0,8,C2,64,18,00,00,01,01,A3,
4295907757,000001D4,false,Rx,0,8,F7,07,00,00,C7,46,00,B7,
4295907970,000001F2,false,Rx,0,8,10,64,00,00,00,1E,03,0F,
4295909853,0000011A,false,Rx,0,8,11,40,00,55,40,00,02,A8,
4295911495,000001DB,false,Rx,0,8,FF,C0,C0,6A,00,00,02,01,
4295911775,000001DC,false,Rx,0,8,6E,04,1F,FD,04,D8,C6,8F,
4295914252,000001DA,false,Rx,0,8,C2,64,18,00,00,01,02,A9,
4295914533,00000380,false,Rx,0,8,02,04,10,21,00,00,00,B0,
4295914746,000005BF,false,Rx,0,8,00,00,00,00,28,00,00,09,
4295918055,000001D4,false,Rx,0,8,F7,07,00,00,07,46,00,7B,
4295918269,000001F2,false,Rx,0,8,10,64,00,00,00,1E,00,0C,
4295918552,00000284,false,Rx,0,8,00,00,00,00,00,00,6E,F4,
4295920189,0000011A,false,Rx,0,8,11,40,00,AA,80,00,03,BE,
4295921479,000001DB,false,Rx,0,8,FF,A0,C0,6A,00,00,03,77,
4295921760,000001DC,false,Rx,0,8,6E,04,1F,FD,08,C0,C7,C0,
4295924233,000001DA,false,Rx,0,8,C2,64,18,00,00,01,03,2C,
4295928260,000001D4,false,Rx,0,8,F7,07,00,00,47,46,00,BC,
4295928475,000001F2,false,Rx,0,8,10,64,00,00,00,1E,01,0D,
4295929408,0000011A,false,Rx,0,8,11,40,00,AA,C0,00,00,73,
4295931537,000001DB,false,Rx,0,8,FF,C0,C0,6A,00,00,00,8E,
4295931750,000001DC,false,Rx,0,8,6E,04,1F,FD,0C,C4,C0,64,
4295934284,000001DA,false,Rx,0,8,C2,64,18,00,00,01,00,26,
4295934500,0000055A,false,Rx,0,8,00,44,41,00,5F,43,5B,08,
4295938534,000001D4,false,Rx,0,8,F7,07,00,00,87,46,00,70,
4295938747,000001F2,false,Rx,0,8,10,64,00,00,00,1E,02,0E,
4295939020,00000284,false,Rx,0,8,00,00,00,00,00,00,6F,F5,
4295940188,0000011A,false,Rx,0,8,11,40,00,55,00,00,01,65,
4295941546,000001DB,false,Rx,0,8,FF,C0,C0,6A,00,00,01,0B,
4295941760,000001DC,false,Rx,0,8,6E,04,1F,FD,01,08,D1,84,
4295944233,000001DA,false,Rx,0,8,C2,64,18,00,00,01,01,A3,
4295948742,000001D4,false,Rx,0,8,F7,07,00,00,C7,46,00,B7,
4295949015,000001F2,false,Rx,0,8,10,64,00,00,00,1E,03,0F,
4295956300,0000011A,false,Rx,0,8,11,40,00,55,40,00,02,A8,
4295956365,000001DB,false,Rx,0,8,FF,C0,C0,6A,00,00,02,01,
4295956428,000001DC,false,Rx,0,8,6E,04,1F,FD,04,D8,C6,8F,
4295956491,000001DA,false,Rx,0,8,C2,64,18,00,00,01,02,A9,
4295959035,000001D4,false,Rx,0,8,F7,07,00,00,07,46,00,7B,
4295959248,000001F2,false,Rx,0,8,10,64,00,00,00,1E,00,0C,
4295959534,00000284,false,Rx,0,8,00,00,00,00,00,00,70,F6,
4295959688,0000050C,false,Rx,0,6,00,00,00,02,B2,0D,00,00,
4295960136,0000011A,false,Rx,0,8,11,40,00,AA,80,00,03,BE,
4295961671,000001DB,false,Rx,0,8,FF,C0,C0,6A,00,00,03,84,
4295961944,000001DC,false,Rx,0,8,6E,04,1F,FD,08,C0,C7,C0,
4295962157,0000055B,false,Rx,0,8,AC,00,55,00,E3,40,13,61,
4295964279,000001DA,false,Rx,0,8,C2,64,18,00,00,01,03,2C,
4295967173,0000056E,false,Rx,0,1,46,00,00,00,00,00,00,00,
4295969239,000001D4,false,Rx,0,8,F7,07,00,00,47,46,00,BC,
4295969522,0000011A,false,Rx,0,8,11,40,00,AA,C0,00,00,73,
4295969736,000001F2,false,Rx,0,8,10,64,00,00,00,1E,01,0D,
4295971495,000001DB,false,Rx,0,8,FF,C0,C0,6A,00,00,00,8E,
4295971776,000001DC,false,Rx,0,8,6E,04,1F,FD,0C,C4,C0,64,
4295973123,0000054A,false,Rx,0,8,9E,00,70,06,22,00,00,3E,
4295974112,0000054B,false,Rx,0,8,00,48,88,12,0C,00,00,00,
4295974387,000001DA,false,Rx,0,8,C2,64,18,00,00,01,00,26,
4295975140,0000054C,false,Rx,0,8,8F,66,40,00,00,40,7D,00,
4295976129,0000054F,false,Rx,0,8,45,01,00,00,07,40,88,33,
4295979570,000001D4,false,Rx,0,8,F7,07,00,00,87,46,00,70,
4295979783,000001F2,false,Rx,0,8,10,64,00,00,00,1E,02,0E,
4295980024,00000284,false,Rx,0,8,00,00,00,00,00,00,71,F7,
4295980237,0000011A,false,Rx,0,8,11,40,00,55,00,00,01,65,
4295980451,0000050A,false,Rx,0,6,85,52,A0,1D,80,20,00,00,
4295981499,000001DB,false,Rx,0,8,FF,C0,C0,6A,00,00,01,0B,
4295981727,000001DC,false,Rx,0,8,6E,04,1F,FD,01,08,D1,84,
4295984273,000001DA,false,Rx,0,8,C2,64,18,00,00,01,01,A3,
4295989693,000001D4,false,Rx,0,8,F7,07,00,00,C7,46,00,B7,
4295989906,0000011A,false,Rx,0,8,11,40,00,55,40,00,02,A8,
4295990179,000001F2,false,Rx,0,8,10,64,00,00,00,1E,03,0F,
4295991534,000001DB,false,Rx,0,8,FF,C0,C0,6A,00,00,02,01,
4295991748,000001DC,false,Rx,0,8,6E,04,1F,FD,04,D8,C6,8F,
4295994278,000001DA,false,Rx,0,8,C2,64,18,00,00,01,02,A9,
4295999977,000001D4,false,Rx,0,8,F7,07,00,00,07,46,00,7B,
4296000191,0000011A,false,Rx,0,8,11,40,00,AA,80,00,03,BE,
4296000467,000001F2,false,Rx,0,8,10,64,00,00,00,1E,00,0C,
4296000688,00000284,false,Rx,0,8,00,00,00,00,00,00,72,F8,
4296000901,0000050B,false,Rx,0,6,00,00,06,C0,00,60,00,00,
4296001539,000001DB,false,Rx,0,8,FF,A0,C0,6A,00,00,03,77,
4296001753,000001DC,false,Rx,0,8,6E,04,1F,FD,08,C0,C7,C0,
4296004226,000001DA,false,Rx,0,8,C2,64,18,00,00,01,03,2C,
4296014106,0000011A,false,Rx,0,8,11,40,00,AA,C0,00,00,73,
4296014170,000001D4,false,Rx,0,8,F7,07,00,00,47,46,00,BC,
4296014266,000001F2,false,Rx,0,8,10,64,00,00,00,1E,01,0D,
4296014333,000001DB,false,Rx,0,8,FF,C0,C0,6A,00,00,00,8E,
4296014396,000001DC,false,Rx,0,8,6E,04,1F,FD,0C,C4,C0,64,
4296014492,000001DA,false,Rx,0,8,C2,64,18,00,00,01,00,26,
4296014563,00000380,false,Rx,0,8,02,04,10,21,00,00,00,8D,
4296014717,000005BF,false,Rx,0,8,00,00,00,00,28,00,00,1A,
4296020114,0000011A,false,Rx,0,8,11,40,00,55,00,00,01,65,
4296020446,000001D4,false,Rx,0,8,F7,07,00,00,87,46,00,70,
4296020727,000001F2,false,Rx,0,8,10,64,00,00,00,1E,02,0E,
4296020941,00000284,false,Rx,0,8,00,00,00,00,00,00,73,F9,
4296021518,000001DB,false,Rx,0,8,FF,C0,C0,6A,00,00,01,0B,
4296021731,000001DC,false,Rx,0,8,6E,04,1F,FD,01,08,D1,84,
4296024267,000001DA,false,Rx,0,8,C2,64,18,00,00,01,01,A3,
4296029793,0000011A,false,Rx,0,8,11,40,00,55,40,00,02,A8,
4296030664,000001D4,false,Rx,0,8,F7,07,00,00,C7,46,00,B7,
4296030937,000001F2,false,Rx,0,8,10,64,00,00,00,1E,03,0F,
4296031151,00000284,false,Rx,0,8,00,00,00,00,00,00,74,FA,
4296031486,000001DB,false,Rx,0,8,FF,C0,C0,6A,00,00,02,01,
4296031766,000001DC,false,Rx,0,8,6E,04,1F,FD,04,D8,C6,8F,
4296034241,000001DA,false,Rx,0,8,C2,64,18,00,00,01,02,A9,
4296034456,0000055A,false,Rx,0,8,00,44,41,00,5F,43,5B,08,
4296040096,0000011A,false,Rx,0,8,11,40,00,AA,80,00,03,BE,
4296040910,000001D4,false,Rx,0,8,F7,07,00,00,07,46,00,7B,
4296041182,000001F2,false,Rx,0,8,10,64,00,00,00,1E,00,0C,
4296041523,000001DB,false,Rx,0,8,FF,C0,C0,6A,00,00,03,84,
4296041736,000001DC,false,Rx,0,8,6E,04,1F,FD,08,C0,C7,C0,
4296044271,000001DA,false,Rx,0,8,C2,64,18,00,00,01,03,2C,
4296049376,0000011A,false,Rx,0,8,11,40,00,AA,C0,00,00,73,
4296051200,000001D4,false,Rx,0,8,F7,07,00,00,47,46,00,BC,
4296051475,000001F2,false,Rx,0,8,10,64,00,00,00,1E,01,0D,
4296051696,000001DB,false,Rx,0,8,FF,C0,C0,6A,00,00,00,8E,
4296051910,000001DC,false,Rx,0,8,6E,04,1F,FD,0C,C4,C0,64,
4296052182,00000284,false,Rx,0,8,00,00,00,00,00,00,75,FB,
4296054244,000001DA,false,Rx,0,8,C2,64,18,00,00,01,00,26,
4296060064,0000011A,false,Rx,0,8,11,40,00,55,00,00,01,65,
4296061424,000001D4,false,Rx,0,8,F7,07,00,00,87,46,00,70,
4296061646,000001F2,false,Rx,0,8,10,64,00,00,00,1E,02,0E,
4296061859,000001DB,false,Rx,0,8,FF,A0,C0,6A,00,00,01,F8,
4296062131,000001DC,false,Rx,0,8,6E,04,1F,FD,01,08,D1,84,
4296062346,0000050C,false,Rx,0,6,00,00,00,03,B2,9A,00,00,
4296062559,0000055B,false,Rx,0,8,AC,00,AA,00,E3,40,10,2C,
4296071412,000001DA,false,Rx,0,8,C2,64,18,00,00,01,01,A3,
4296071517,0000056E,false,Rx,0,1,46,00,00,00,00,00,00,00,
4296071580,0000011A,false,Rx,0,8,11,40,00,55,40,00,02,A8,
4296071643,000001DB,false,Rx,0,8,FF,A0,C0,6A,00,00,02,F2,
4296071739,000001D4,false,Rx,0,8,F7,07,00,00,C7,46,00,B7,
4296071953,000001DC,false,Rx,0,8,6E,04,1F,FD,04,D8,C6,8F,
4296072225,000001F2,false,Rx,0,8,10,64,00,00,00,1E,03,0F,
4296072440,00000284,false,Rx,0,8,00,00,00,00,00,00,76,FC,
4296074205,0000054A,false,Rx,0,8,10,00,70,06,22,00,00,3E,
4296074421,000001DA,false,Rx,0,8,C2,64,18,00,00,01,02,A9,
4296075232,0000054B,false,Rx,0,8,00,48,88,12,0C,00,00,00,
4296076222,0000054C,false,Rx,0,8,8F,66,40,00,00,40,7D,00,
4296077211,0000054F,false,Rx,0,8,45,01,00,00,07,80,88,33,
4296080108,0000011A,false,Rx,0,8,11,40,00,AA,80,00,03,BE,
4296081520,000001DB,false,Rx,0,8,FF,A0,C0,6A,00,00,03,77,
4296081734,000001DC,false,Rx,0,8,6E,04,1F,FD,08,C0,C7,C0,
4296081947,000001D4,false,Rx,0,8,F7,07,00,00,07,46,00,7B,
4296082220,000001F2,false,Rx,0,8,10,64,00,00,00,1E,00,0C,
4296082436,0000050A,false,Rx,0,6,85,72,A0,1D,80,20,00,00,
4296084249,000001DA,false,Rx,0,8,C2,64,18,00,00,01,03,2C,
4296089328,0000011A,false,Rx,0,8,11,40,00,AA,C0,00,00,73,
4296091513,000001DB,false,Rx,0,8,FF,A0,C0,6A,00,00,00,7D,
4296091726,000001DC,false,Rx,0,8,6E,04,1F,FD,0C,C4,C0,64,
4296092175,000001D4,false,Rx,0,8,F7,07,00,00,47,46,00,BC,
4296092390,000001F2,false,Rx,0,8,10,64,00,00,00,1E,01,0D,
4296092611,00000284,false,Rx,0,8,00,00,00,00,00,00,77,FD,
4296094248,000001DA,false,Rx,0,8,C2,64,18,00,00,01,00,26,
4296100067,0000011A,false,Rx,0,8,11,40,00,55,00,00,01,65,
4296101472,000001DB,false,Rx,0,8,FF,A0,C0,6A,00,00,01,F8,
4296101752,000001DC,false,Rx,0,8,6E,04,1F,FD,01,08,D1,84,
4296102380,000001D4,false,Rx,0,8,F7,07,00,00,87,46,00,70,
4296102602,000001F2,false,Rx,0,8,10,64,00,00,00,1E,02,0E,
4296102815,0000050B,false,Rx,0,6,00,00,06,C0,00,60,00,00,
4296104276,000001DA,false,Rx,0,8,C2,64,18,00,00,01,01,A3,
4296109742,0000011A,false,Rx,0,8,11,40,00,55,40,00,02,A8,
4296111502,000001DB,false,Rx,0,8,FF,A0,C0,6A,00,00,02,F2,
4296111722,000001DC,false,Rx,0,8,6E,04,1F,FD,04,D8,C6,8F,
4296112655,000001D4,false,Rx,0,8,F7,07,00,00,C7,46,00,B7,
4296112868,000001F2,false,Rx,0,8,10,64,00,00,00,1E,03,0F,
4296113140,00000284,false,Rx,0,8,00,00,00,00,00,00,78,FE,
4296114247,000001DA,false,Rx,0,8,C2,64,18,00,00,01,02,A9,
4296114586,00000380,false,Rx,0,8,02,04,10,21,00,00,00,9E,
4296114800,000005BF,false,Rx,0,8,00,00,00,00,28,00,00,2B,
4296120078,0000011A,false,Rx,0,8,11,40,00,AA,80,00,03,BE,
4296128907,000001DB,false,Rx,0,8,FF,A0,C0,6A,00,00,03,77,
4296128972,000001DC,false,Rx,0,8,6E,04,1F,FD,08,C0,C7,C0,
4296129035,000001D4,false,Rx,0,8,F7,07,00,00,07,46,00,7B,
4296129098,000001F2,false,Rx,0,8,10,64,00,00,00,1E,00,0C,
4296129161,000001DA,false,Rx,0,8,C2,64,18,00,00,01,03,2C,
4296129319,0000011A,false,Rx,0,8,11,40,00,AA,C0,00,00,73,
4296131521,000001DB,false,Rx,0,8,FF,A0,C0,6A,00,00,00,7D,
4296131734,000001DC,false,Rx,0,8,6E,04,1F,FD,0C,C4,C0,64,
4296133137,000001D4,false,Rx,0,8,F7,07,00,00,47,46,00,BC,
4296133353,000001F2,false,Rx,0,8,10,64,00,00,00,1E,01,0D,
4296133634,00000284,false,Rx,0,8,00,00,00,00,00,00,79,FF,
4296134261,000001DA,false,Rx,0,8,C2,64,18,00,00,01,00,26,
4296134476,0000055A,false,Rx,0,8,00,44,41,00,5F,43,5B,08,
4296140055,0000011A,false,Rx,0,8,11,40,00,55,00,00,01,65,
4296141458,000001DB,false,Rx,0,8,FF,A0,C0,6A,00,00,01,F8,
4296141739,000001DC,false,Rx,0,8,6E,04,1F,FD,01,08,D1,84,
4296143322,000001D4,false,Rx,0,8,F7,07,00,00,87,46,00,70,
4296143602,000001F2,false,Rx,0,8,10,64,00,00,00,1E,02,0E,
4296144228,000001DA,false,Rx,0,8,C2,64,18,00,00,01,01,A3,
4296149754,0000011A,false,Rx,0,8,11,40,00,55,40,00,02,A8,
4296151519,000001DB,false,Rx,0,8,FF,A0,C0,6A,00,00,02,F2,
4296151732,000001DC,false,Rx,0,8,6E,04,1F,FD,04,D8,C6,8F,
4296153618,000001D4,false,Rx,0,8,F7,07,00,00,C7,46,00,B7,
4296153891,000001F2,false,Rx,0,8,10,64,00,00,00,1E,03,0F,
4296154104,00000284,false,Rx,0,8,00,00,00,00,00,00,7A,00,
4296154378,000001DA,false,Rx,0,8,C2,64,18,00,00,01,02,A9,
4296160017,0000011A,false,Rx,0,8,11,40,00,AA,80,00,03,BE,
4296161900,000001DB,false,Rx,0,8,FF,C0,C0,6A,00,00,03,84,
4296161963,000001DC,false,Rx,0,8,6E,04,1F,FD,08,C0,C7,C0,
4296162117,0000055B,false,Rx,0,8,AC,00,AA,00,E3,40,11,A9,
4296163900,000001D4,false,Rx,0,8,F7,07,00,00,07,46,00,7B,
4296164114,000001F2,false,Rx,0,8,10,64,00,00,00,1E,00,0C,
4296164388,000001DA,false,Rx,0,8,C2,64,18,00,00,01,03,2C,
4296164550,0000050C,false,Rx,0,6,00,00,00,00,5D,C8,00,00,
4296167259,0000056E,false,Rx,0,1,46,00,00,00,00,00,00,00,
4296169204,0000011A,false,Rx,0,8,11,40,00,AA,C0,00,00,73,
4296171518,000001DB,false,Rx,0,8,FF,C0,C0,6A,00,00,00,8E,
4296171732,000001DC,false,Rx,0,8,6E,04,1F,FD,0C,C4,C0,64,
4296173316,0000054A,false,Rx,0,8,9E,00,70,06,22,00,00,3E,
4296174127,000001D4,false,Rx,0,8,F7,07,00,00,47,46,00,BC,
4296174344,000001DA,false,Rx,0,8,C2,64,18,00,00,01,00,26,
4296174625,000001F2,false,Rx,0,8,10,64,00,00,00,1E,01,0D,
4296174838,00000284,false,Rx,0,8,00,00,00,00,00,00,7B,01,
4296175111,0000054B,false,Rx,0,8,00,48,88,12,0C,00,00,00,
4296176278,0000054C,false,Rx,0,8,8F,66,40,00,00,40,7D,00,
4296177267,0000054F,false,Rx,0,8,45,01,00,00,07,C0,88,33,
4296186779,0000011A,false,Rx,0,8,11,40,00,55,00,00,01,65,
4296186844,000001DB,false,Rx,0,8,FF,C0,C0,6A,00,00,01,0B,
4296186907,000001DC,false,Rx,0,8,6E,04,1F,FD,01,08,D1,84,
4296186970,000001DA,false,Rx,0,8,C2,64,18,00,00,01,01,A3,
4296187033,000001D4,false,Rx,0,8,F7,07,00,00,87,46,00,70,
4296187096,000001F2,false,Rx,0,8,10,64,00,00,00,1E,02,0E,
4296187160,0000050A,false,Rx,0,6,85,12,A0,1D,80,20,00,00,
4296189701,0000011A,false,Rx,0,8,11,40,00,55,40,00,02,A8,
4296191457,000001DB,false,Rx,0,8,FF,C0,C0,6A,00,00,02,01,
4296191737,000001DC,false,Rx,0,8,6E,04,1F,FD,04,D8,C6,8F,
4296194214,000001DA,false,Rx,0,8,C2,64,18,00,00,01,02,A9,
4296194555,000001D4,false,Rx,0,8,F7,07,00,00,C7,46,00,B7,
4296194827,000001F2,false,Rx,0,8,10,64,00,00,00,1E,03,0F,
4296195040,00000284,false,Rx,0,8,00,00,00,00,00,00,7C,02,
4296200023,0000011A,false,Rx,0,8,11,40,00,AA,80,00,03,BE,
4296201486,000001DB,false,Rx,0,8,FF,C0,C0,6A,00,00,03,84,
4296201708,000001DC,false,Rx,0,8,6E,04,1F,FD,08,C0,C7,C0,
4296204242,000001DA,false,Rx,0,8,C2,64,18,00,00,01,03,2C,
4296204820,000001D4,false,Rx,0,8,F7,07,00,00,07,46,00,7B,
4296205033,000001F2,false,Rx,0,8,10,64,00,00,00,1E,00,0C,
4296205246,0000050B,false,Rx,0,6,00,00,06,C0,00,60,00,00,
4296209272,0000011A,false,Rx,0,8,11,40,00,AA,C0,00,00,73,
4296211520,000001DB,false,Rx,0,8,FF,C0,C0,6A,00,00,00,8E,
4296211733,000001DC,false,Rx,0,8,6E,04,1F,FD,0C,C4,C0,64,
4296214207,000001DA,false,Rx,0,8,C2,64,18,00,00,01,00,26,
4296214727,00000380,false,Rx,0,8,02,04,10,21,00,00,00,AF,
4296214940,000005BF,false,Rx,0,8,00,00,00,00,28,00,00,3C,
4296215153,000001D4,false,Rx,0,8,F7,07,00,00,47,46,00,BC,
4296215426,000001F2,false,Rx,0,8,10,64,00,00,00,1E,01,0D,
4296215646,00000284,false,Rx,0,8,00,00,00,00,00,00,7D,03,
4296220030,0000011A,false,Rx,0,8,11,40,00,55,00,00,01,65,
4296221495,000001DB,false,Rx,0,8,FF,C0,C0,6A,00,00,01,0B,
4296221717,000001DC,false,Rx,0,8,6E,04,1F,FD,01,08,D1,84,
4296224194,000001DA,false,Rx,0,8,C2,64,18,00,00,01,01,A3,
4296225304,000001D4,false,Rx,0,8,F7,07,00,00,87,46,00,70,
4296225584,000001F2,false,Rx,0,8,10,64,00,00,00,1E,02,0E,
4296229671,0000011A,false,Rx,0,8,11,40,00,55,40,00,02,A8,
4296231486,000001DB,false,Rx,0,8,FF,A0,C0,6A,00,00,02,F2,
4296231708,000001DC,false,Rx,0,8,6E,04,1F,FD,04,D8,C6,8F,
4296234242,000001DA,false,Rx,0,8,C2,64,18,00,00,01,02,A9,
4296234457,0000055A,false,Rx,0,8,00,44,41,00,5F,43,5B,08,
4296235572,000001D4,false,Rx,0,8,F7,07,00,00,C7,46,00,B7,
4296235785,000001F2,false,Rx,0,8,10,64,00,00,00,1E,03,0F,
4296236058,00000284,false,Rx,0,8,00,00,00,00,00,00,7E,04,
4296244323,0000011A,false,Rx,0,8,11,40,00,AA,80,00,03,BE,
4296244387,000001DB,false,Rx,0,8,FF,C0,C0,6A,00,00,03,84,
4296244451,000001DC,false,Rx,0,8,6E,04,1F,FD,08,C0,C7,C0,
4296244521,000001DA,false,Rx,0,8,C2,64,18,00,00,01,03,2C,
4296245805,000001D4,false,Rx,0,8,F7,07,00,00,07,46,00,7B,
4296246018,000001F2,false,Rx,0,8,10,64,00,00,00,1E,00,0C,
4296249211,0000011A,false,Rx,0,8,11,40,00,AA,C0,00,00,73,
4296251451,000001DB,false,Rx,0,8,FF,A0,C0,6A,00,00,00,7D,
4296251732,000001DC,false,Rx,0,8,6E,04,1F,FD,0C,C4,C0,64,
4296254208,000001DA,false,Rx,0,8,C2,64,18,00,00,01,00,26,
4296256094,000001D4,false,Rx,0,8,F7,07,00,00,47,46,00,BC,
4296256309,000001F2,false,Rx,0,8,10,64,00,00,00,1E,01,0D,
4296256588,00000284,false,Rx,0,8,00,00,00,00,00,00,7F,05,
4296259959,0000011A,false,Rx,0,8,11,40,00,55,00,00,01,65,
4296261685,000001DB,false,Rx,0,8,FF,A0,C0,6A,00,00,01,F8,
4296261899,000001DC,false,Rx,0,8,6E,04,1F,FD,01,08,D1,84,
4296262113,0000055B,false,Rx,0,8,AC,00,AA,00,E3,40,12,A3,
4296264232,000001DA,false,Rx,0,8,C2,64,18,00,00,01,01,A3,
4296266355,000001D4,false,Rx,0,8,F7,07,00,00,87,46,00,70,
4296266576,000001F2,false,Rx,0,8,10,64,00,00,00,1E,02,0E,
4296266790,0000050C,false,Rx,0,6,00,00,00,01,5D,5F,00,00,
4296267297,0000056E,false,Rx,0,1,46,00,00,00,00,00,00,00,
4296269677,0000011A,false,Rx,0,8,11,40,00,55,40,00,02,A8,
4296271498,000001DB,false,Rx,0,8,FF,A0,C0,6A,00,00,02,F2,
4296271718,000001DC,false,Rx,0,8,6E,04,1F,FD,04,D8,C6,8F,
4296273362,0000054A,false,Rx,0,8,10,00,70,06,22,00,00,3E,
4296274232,000001DA,false,Rx,0,8,C2,64,18,00,00,01,02,A9,
4296274446,0000054B,false,Rx,0,8,00,48,88,12,0C,00,00,00,
4296275379,0000054C,false,Rx,0,8,8F,66,40,00,00,40,7D,00,
4296276368,0000054F,false,Rx,0,8,45,01,00,00,07,00,88,33,
4296276590,000001D4,false,Rx,0,8,F7,07,00,00,C7,46,00,B7,
4296276863,000001F2,false,Rx,0,8,10,64,00,00,00,1E,03,0F,
4296277077,00000284,false,Rx,0,8,00,00,00,00,00,00,80,06,
4296277350,000005A9,false,Rx,0,8,7A,17,20,10,83,E0,00,00,
4296279953,0000011A,false,Rx,0,8,11,40,00,AA,80,00,03,BE,
4296281480,000001DB,false,Rx,0,8,FF,A0,C0,6A,00,00,03,77,
4296281701,000001DC,false,Rx,0,8,6E,04,1F,FD,08,C0,C7,C0,
4296284233,000001DA,false,Rx,0,8,C2,64,18,00,00,01,03,2C,
4296286786,000001D4,false,Rx,0,8,F7,07,00,00,07,46,00,7B,
4296287058,000001F2,false,Rx,0,8,10,64,00,00,00,1E,00,0C,
4296287271,0000050A,false,Rx,0,6,85,32,A0,1D,80,20,00,00,
4296289242,0000011A,false,Rx,0,8,11,40,00,AA,C0,00,00,73,
4296291497,000001DB,false,Rx,0,8,FF,A0,C0,6A,00,00,00,7D,
4296291718,000001DC,false,Rx,0,8,6E,04,1F,FD,0C,C4,C0,64,
4296294195,000001DA,false,Rx,0,8,C2,64,18,00,00,01,00,26,
4296301992,000001D4,false,Rx,0,8,F7,07,00,00,47,46,00,BC,
4296302057,000001F2,false,Rx,0,8,10,64,00,00,00,1E,01,0D,
4296302120,00000284,false,Rx,0,8,00,00,00,00,00,00,81,07,
4296302183,0000011A,false,Rx,0,8,11,40,00,55,00,00,01,65,
4296302246,000001DB,false,Rx,0,8,FF,A0,C0,6A,00,00,01,F8,
4296302310,000001DC,false,Rx,0,8,6E,04,1F,FD,01,08,D1,84,
4296304193,000001DA,false,Rx,0,8,C2,64,18,00,00,01,01,A3,
4296307266,000001D4,false,Rx,0,8,F7,07,00,00,87,46,00,70,
4296307483,000001F2,false,Rx,0,8,10,64,00,00,00,1E,02,0E,
4296307705,0000050B,false,Rx,0,6,00,00,06,C0,00,60,00,00,
4296309649,0000011A,false,Rx,0,8,11,40,00,55,40,00,02,A8,
4296311467,000001DB,false,Rx,0,8,FF,C0,C0,6A,00,00,02,01,
4296311688,000001DC,false,Rx,0,8,6E,04,1F,FD,04,D8,C6,8F,
4296314220,000001DA,false,Rx,0,8,C2,64,18,00,00,01,02,A9,
4296314798,00000380,false,Rx,0,8,02,04,10,21,00,00,00,B0,
4296315071,000005BF,false,Rx,0,8,00,00,00,00,28,00,00,09,
4296317558,000001D4,false,Rx,0,8,F7,07,00,00,C7,46,00,B7,
4296317772,000001F2,false,Rx,0,8,10,64,00,00,00,1E,03,0F,
4296318044,00000284,false,Rx,0,8,00,00,00,00,00,00,82,08,
4296319928,0000011A,false,Rx,0,8,11,40,00,AA,80,00,03,BE,
4296321449,000001DB,false,Rx,0,8,FF,A0,C0,6A,00,00,03,77,
4296321730,000001DC,false,Rx,0,8,6E,04,1F,FD,08,C0,C7,C0,
4296324205,000001DA,false,Rx,0,8,C2,64,18,00,00,01,03,2C,
4296327701,000001D4,false,Rx,0,8,F7,07,00,00,07,46,00,7B,
4296327974,000001F2,false,Rx,0,8,10,64,00,00,00,1E,00,0C,
4296329143,0000011A,false,Rx,0,8,11,40,00,AA,C0,00,00,73,
4296331445,000001DB,false,Rx,0,8,FF,C0,C0,6A,00,00,00,8E,
4296331726,000001DC,false,Rx,0,8,6E,04,1F,FD,0C,C4,C0,64,
4296334227,000001DA,false,Rx,0,8,C2,64,18,00,00,01,00,26,
4296334442,0000055A,false,Rx,0,8,00,44,41,00,5F,43,5B,08,
4296337994,000001D4,false,Rx,0,8,F7,07,00,00,47,46,00,BC,
4296338208,000001F2,false,Rx,0,8,10,64,00,00,00,1E,01,0D,
4296338485,00000284,false,Rx,0,8,00,00,00,00,00,00,83,09,
4296339954,0000011A,false,Rx,0,8,11,40,00,55,00,00,01,65,
4296341480,000001DB,false,Rx,0,8,FF,C0,C0,6A,00,00,01,0B,
4296341701,000001DC,false,Rx,0,8,6E,04,1F,FD,01,08,D1,84,
4296344232,000001DA,false,Rx,0,8,C2,64,18,00,00,01,01,A3,
4296348201,000001D4,false,Rx,0,8,F7,07,00,00,87,46,00,70,
4296348476,000001F2,false,Rx,0,8,10,64,00,00,00,1E,02,0E,
4296348637,000005B9,false,Rx,0,5,40,78,51,2C,28,00,00,00,
4296349626,0000011A,false,Rx,0,8,11,40,00,55,40,00,02,A8,
4296351445,000001DB,false,Rx,0,8,FF,C0,C0,6A,00,00,02,01,
4296351726,000001DC,false,Rx,0,8,6E,04,1F,FD,04,D8,C6,8F,
4296359343,000001DA,false,Rx,0,8,C2,64,18,00,00,01,02,A9,
4296359407,000001D4,false,Rx,0,8,F7,07,00,00,C7,46,00,B7,
4296359470,000001F2,false,Rx,0,8,10,64,00,00,00,1E,03,0F,
4296359541,00000284,false,Rx,0,8,00,00,00,00,00,00,84,0A,
4296359931,0000011A,false,Rx,0,8,11,40,00,AA,80,00,03,BE,
4296361637,000001DB,false,Rx,0,8,FF,C0,C0,6A,00,00,03,84,
4296361910,000001DC,false,Rx,0,8,6E,04,1F,FD,08,C0,C7,C0,
4296362124,0000055B,false,Rx,0,8,AC,00,AA,00,E3,40,13,26,
4296364187,000001DA,false,Rx,0,8,C2,64,18,00,00,01,03,2C,
4296367207,0000056E,false,Rx,0,1,46,00,00,00,00,00,00,00,
4296368798,000001D4,false,Rx,0,8,F7,07,00,00,07,46,00,7B,
4296369011,000001F2,false,Rx,0,8,10,64,00,00,00,1E,00,0C,
4296369230,0000011A,false,Rx,0,8,11,40,00,AA,C0,00,00,73,
4296369448,0000050C,false,Rx,0,6,00,00,00,02,5D,63,00,00,
4296371812,000001DB,false,Rx,0,8,FF,C0,C0,6A,00,00,00,8E,
4296372025,000001DC,false,Rx,0,8,6E,04,1F,FD,0C,C4,C0,64,
4296372297,000005BC,false,Rx,0,8,25,03,2A,39,91,05,40,28,
4296372519,000005C0,false,Rx,0,8,40,74,74,00,66,08,00,00,
4296373442,0000054A,false,Rx,0,8,9E,00,70,06,22,00,00,3E,
4296374194,000001DA,false,Rx,0,8,C2,64,18,00,00,01,00,26,
4296374469,0000054B,false,Rx,0,8,00,48,88,12,0C,00,00,00,
4296375459,0000054C,false,Rx,0,8,8F,66,40,00,00,40,7D,00,
4296376448,0000054F,false,Rx,0,8,45,01,00,00,07,40,88,33,
4296379047,000001D4,false,Rx,0,8,F7,07,00,00,47,46,00,BC,
4296379322,000001F2,false,Rx,0,8,10,64,00,00,00,1E,01,0D,
4296379535,00000284,false,Rx,0,8,00,00,00,00,00,00,85,0B,
4296379934,0000011A,false,Rx,0,8,11,40,00,55,00,00,01,65,
4296381456,000001DB,false,Rx,0,8,FF,C0,C0,6A,00,00,01,0B,
4296381677,000001DC,false,Rx,0,8,6E,04,1F,FD,01,08,D1,84,
4296384214,000001DA,false,Rx,0,8,C2,64,18,00,00,01,01,A3,
4296389167,000001D4,false,Rx,0,8,F7,07,00,00,87,46,00,70,
4296389441,000001F2,false,Rx,0,8,10,64,00,00,00,1E,02,0E,
4296389675,0000011A,false,Rx,0,8,11,40,00,55,40,00,02,A8,
4296389838,0000050A,false,Rx,0,6,85,52,A0,1D,80,20,00,00,
4296391483,000001DB,false,Rx,0,8,FF,A0,C0,6A,00,00,02,F2,
4296391715,000001DC,false,Rx,0,8,6E,04,1F,FD,04,D8,C6,8F,
4296394188,000001DA,false,Rx,0,8,C2,64,18,00,00,01,02,A9,
4296399469,000001D4,false,Rx,0,8,F7,07,00,00,C7,46,00,B7,
4296399691,000001F2,false,Rx,0,8,10,64,00,00,00,1E,03,0F,
4296399904,0000011A,false,Rx,0,8,11,40,00,AA,80,00,03,BE,
4296400177,00000284,false,Rx,0,8,00,00,00,00,00,00,86,0C,
4296401467,000001DB,false,Rx,0,8,FF,C0,C0,6A,00,00,03,84,
4296401689,000001DC,false,Rx,0,8,6E,04,1F,FD,08,C0,C7,C0,
4296404220,000001DA,false,Rx,0,8,C2,64,18,00,00,01,03,2C,
4296409142,0000011A,false,Rx,0,8,11,40,00,AA,C0,00,00,73,
4296416997,000001D4,false,Rx,0,8,F7,07,00,00,07,46,00,7B,
4296417062,000001F2,false,Rx,0,8,10,64,00,00,00,1E,00,0C,
4296417125,0000050B,false,Rx,0,6,00,00,06,C0,00,60,00,00,
4296417188,000001DB,false,Rx,0,8,FF,A0,C0,6A,00,00,00,7D,
4296417251,000001DC,false,Rx,0,8,6E,04,1F,FD,0C,C4,C0,64,
4296417316,000001DA,false,Rx,0,8,C2,64,18,00,00,01,00,26,
4296417380,00000380,false,Rx,0,8,02,04,10,21,00,00,00,8D,
4296417443,000005BF,false,Rx,0,8,00,00,00,00,28,00,00,1A,
4296419865,0000011A,false,Rx,0,8,11,40,00,55,00,00,01,65,
4296420138,000001D4,false,Rx,0,8,F7,07,00,00,47,46,00,BC,
4296420352,000001F2,false,Rx,0,8,10,64,00,00,00,1E,01,0D,
4296420633,00000284,false,Rx,0,8,00,00,00,00,00,00,87,0D,
4296421438,000001DB,false,Rx,0,8,FF,A0,C0,6A,00,00,01,F8,
4296421718,000001DC,false,Rx,0,8,6E,04,1F,FD,01,08,D1,84,
4296424195,000001DA,false,Rx,0,8,C2,64,18,00,00,01,01,A3,
4296429598,0000011A,false,Rx,0,8,11,40,00,55,40,00,02,A8,
4296430166,000001D4,false,Rx,0,8,F7,07,00,00,87,46,00,70,
4296430381,000001F2,false,Rx,0,8,10,64,00,00,00,1E,02,0E,
4296431430,000001DB,false,Rx,0,8,FF,A0,C0,6A,00,00,02,F2,
4296431711,000001DC,false,Rx,0,8,6E,04,1F,FD,04,D8,C6,8F,
4296434185,000001DA,false,Rx,0,8,C2,64,18,00,00,01,02,A9,
4296434402,0000055A,false,Rx,0,8,00,44,41,00,5F,43,5B,08,
4296439866,0000011A,false,Rx,0,8,11,40,00,AA,80,00,03,BE,
4296440435,000001D4,false,Rx,0,8,F7,07,00,00,C7,46,00,B7,
4296440657,000001F2,false,Rx,0,8,10,64,00,00,00,1E,03,0F,
4296440930,00000284,false,Rx,0,8,00,00,00,00,00,00,88,0E,
4296441440,000001DB,false,Rx,0,8,FF,A0,C0,6A,00,00,03,77,
4296441720,000001DC,false,Rx,0,8,6E,04,1F,FD,08,C0,C7,C0,
4296444195,000001DA,false,Rx,0,8,C2,64,18,00,00,01,03,2C,
4296449124,0000011A,false,Rx,0,8,11,40,00,AA,C0,00,00,73,
4296450658,000001D4,false,Rx,0,8,F7,07,00,00,07,46,00,7B,
4296450930,000001F2,false,Rx,0,8,10,64,00,00,00,1E,00,0C,
4296451144,00000284,false,Rx,0,8,00,00,00,00,00,00,89,0F,
4296451478,000001DB,false,Rx,0,8,FF,C0,C0,6A,00,00,00,8E,
4296451700,000001DC,false,Rx,0,8,6E,04,1F,FD,0C,C4,C0,64,
4296454174,000001DA,false,Rx,0,8,C2,64,18,00,00,01,00,26,
4296459872,0000011A,false,Rx,0,8,11,40,00,55,00,00,01,65,
4296460921,000001D4,false,Rx,0,8,F7,07,00,00,47,46,00,BC,
4296461193,000001F2,false,Rx,0,8,10,64,00,00,00,1E,01,0D,
4296461667,000001DB,false,Rx,0,8,FF,C0,C0,6A,00,00,01,0B,
4296461881,000001DC,false,Rx,0,8,6E,04,1F,FD,01,08,D1,84,
4296462094,0000055B,false,Rx,0,8,AC,00,AA,00,E3,40,10,2C,
4296464213,000001DA,false,Rx,0,8,C2,64,18,00,00,01,01,A3,
4296474324,0000056E,false,Rx,0,1,46,00,00,00,00,00,00,00,
4296474388,0000011A,false,Rx,0,8,11,40,00,55,40,00,02,A8,
4296474452,000001D4,false,Rx,0,8,F7,07,00,00,87,46,00,70,
4296474555,000001F2,false,Rx,0,8,10,64,00,00,00,1E,02,0E,
4296474618,000001DB,false,Rx,0,8,FF,C0,C0,6A,00,00,02,01,
4296474681,000001DC,false,Rx,0,8,6E,04,1F,FD,04,D8,C6,8F,
4296474744,00000284,false,Rx,0,8,00,00,00,00,00,00,8A,10,
4296474807,0000050C,false,Rx,0,6,00,00,00,03,5D,F4,00,00,
4296474870,0000054A,false,Rx,0,8,10,00,70,06,22,00,00,3E,
4296474934,000001DA,false,Rx,0,8,C2,64,18,00,00,01,02,A9,
4296474997,0000054B,false,Rx,0,8,00,48,88,12,0C,00,00,00,
4296475514,0000054C,false,Rx,0,8,8F,66,40,00,00,40,7D,00,
4296476496,0000054F,false,Rx,0,8,45,01,00,00,07,80,88,33,
4296479872,0000011A,false,Rx,0,8,11,40,00,AA,80,00,03,BE,
4296481453,000001D4,false,Rx,0,8,F7,07,00,00,C7,46,00,B7,
4296481674,000001DB,false,Rx,0,8,FF,A0,C0,6A,00,00,03,77,
4296481887,000001DC,false,Rx,0,8,6E,04,1F,FD,08,C0,C7,C0,
4296482159,000001F2,false,Rx,0,8,10,64,00,00,00,1E,03,0F,
4296484161,000001DA,false,Rx,0,8,C2,64,18,00,00,01,03,2C,
4296489037,0000011A,false,Rx,0,8,11,40,00,AA,C0,00,00,73,
4296491453,000001DB,false,Rx,0,8,FF,A0,C0,6A,00,00,00,7D,
4296491674,000001D4,false,Rx,0,8,F7,07,00,00,07,46,00,7B,
4296491946,000001DC,false,Rx,0,8,6E,04,1F,FD,0C,C4,C0,64,
4296492160,000001F2,false,Rx,0,8,10,64,00,00,00,1E,00,0C,
4296492433,00000284,false,Rx,0,8,00,00,00,00,00,00,8B,11,
4296492607,0000050A,false,Rx,0,6,85,72,A0,1D,80,20,00,00,
4296494205,000001DA,false,Rx,0,8,C2,64,18,00,00,01,00,26,
4296499866,0000011A,false,Rx,0,8,11,40,00,55,00,00,01,65,
4296501448,000001DB,false,Rx,0,8,FF,A0,C0,6A,00,00,01,F8,
4296501669,000001DC,false,Rx,0,8,6E,04,1F,FD,01,08,D1,84,
4296501942,000001D4,false,Rx,0,8,F7,07,00,00,47,46,00,BC,
4296502155,000001F2,false,Rx,0,8,10,64,00,00,00,1E,01,0D,
4296504158,000001DA,false,Rx,0,8,C2,64,18,00,00,01,01,A3,
4296509564,0000011A,false,Rx,0,8,11,40,00,55,40,00,02,A8,
4296511443,000001DB,false,Rx,0,8,FF,C0,C0,6A,00,00,02,01,
4296511663,000001DC,false,Rx,0,8,6E,04,1F,FD,04,D8,C6,8F,
4296512113,000001D4,false,Rx,0,8,F7,07,00,00,87,46,00,70,
4296512387,000001F2,false,Rx,0,8,10,64,00,00,00,1E,02,0E,
4296512609,00000284,false,Rx,0,8,00,00,00,00,00,00,8C,12,
4296512822,0000050B,false,Rx,0,6,00,00,06,C0,00,60,00,00,
4296514164,000001DA,false,Rx,0,8,C2,64,18,00,00,01,02,A9,
4296514978,00000380,false,Rx,0,8,02,04,10,21,00,00,00,9E,
4296515251,000005BF,false,Rx,0,8,00,00,00,00,28,00,00,2B,
4296519818,0000011A,false,Rx,0,8,11,40,00,AA,80,00,03,BE,
4296521458,000001DB,false,Rx,0,8,FF,C0,C0,6A,00,00,03,84,
4296521678,000001DC,false,Rx,0,8,6E,04,1F,FD,08,C0,C7,C0,
4296522368,000001D4,false,Rx,0,8,F7,07,00,00,C7,46,00,B7,
4296522589,000001F2,false,Rx,0,8,10,64,00,00,00,1E,03,0F,
4296524168,000001DA,false,Rx,0,8,C2,64,18,00,00,01,03,2C,
4296532743,0000011A,false,Rx,0,8,11,40,00,AA,C0,00,00,73,
4296532840,000001DB,false,Rx,0,8,FF,A0,C0,6A,00,00,00,7D,
4296532903,000001DC,false,Rx,0,8,6E,04,1F,FD,0C,C4,C0,64,
4296532966,000001D4,false,Rx,0,8,F7,07,00,00,07,46,00,7B,
4296533029,000001F2,false,Rx,0,8,10,64,00,00,00,1E,00,0C,
4296533125,00000284,false,Rx,0,8,00,00,00,00,00,00,8D,13,
4296534173,000001DA,false,Rx,0,8,C2,64,18,00,00,01,00,26,
4296534388,0000055A,false,Rx,0,8,00,44,41,00,5F,43,5B,08,
4296539794,0000011A,false,Rx,0,8,11,40,00,55,00,00,01,65,
4296541437,000001DB,false,Rx,0,8,FF,A0,C0,6A,00,00,01,F8,
4296541658,000001DC,false,Rx,0,8,6E,04,1F,FD,01,08,D1,84,
4296542829,000001D4,false,Rx,0,8,F7,07,00,00,47,46,00,BC,
4296543100,000001F2,false,Rx,0,8,10,64,00,00,00,1E,01,0D,
4296544208,000001DA,false,Rx,0,8,C2,64,18,00,00,01,01,A3,
4296549492,0000011A,false,Rx,0,8,11,40,00,55,40,00,02,A8,
4296551439,000001DB,false,Rx,0,8,FF,A0,C0,6A,00,00,02,F2,
4296551661,000001DC,false,Rx,0,8,6E,04,1F,FD,04,D8,C6,8F,
4296553065,000001D4,false,Rx,0,8,F7,07,00,00,87,46,00,70,
4296553339,000001F2,false,Rx,0,8,10,64,00,00,00,1E,02,0E,
4296553559,00000284,false,Rx,0,8,00,00,00,00,00,00,8E,14,
4296554185,000001DA,false,Rx,0,8,C2,64,18,00,00,01,02,A9,
4296559829,0000011A,false,Rx,0,8,11,40,00,AA,80,00,03,BE,
4296561599,000001DB,false,Rx,0,8,FF,A0,C0,6A,00,00,03,77,
4296561872,000001DC,false,Rx,0,8,6E,04,1F,FD,08,C0,C7,C0,
4296562085,0000055B,false,Rx,0,8,AC,00,55,00,E3,40,11,EE,
4296563372,000001D4,false,Rx,0,8,F7,07,00,00,C7,46,00,B7,
4296563593,000001F2,false,Rx,0,8,10,64,00,00,00,1E,03,0F,
4296564160,000001DA,false,Rx,0,8,C2,64,18,00,00,01,03,2C,
4296567351,0000056E,false,Rx,0,1,46,00,00,00,00,00,00,00,
4296569056,0000011A,false,Rx,0,8,11,40,00,AA,C0,00,00,73,
4296571421,000001DB,false,Rx,0,8,FF,A0,C0,6A,00,00,00,7D,
4296571702,000001DC,false,Rx,0,8,6E,04,1F,FD,0C,C4,C0,64,
4296573585,0000054A,false,Rx,0,8,9E,00,70,06,22,00,00,3E,
4296573858,000001D4,false,Rx,0,8,F7,07,00,00,07,46,00,7B,
4296574071,000001F2,false,Rx,0,8,10,64,00,00,00,1E,00,0C,
4296574345,000001DA,false,Rx,0,8,C2,64,18,00,00,01,00,26,
4296574560,00000284,false,Rx,0,8,00,00,00,00,00,00,8F,15,
4296574773,0000050C,false,Rx,0,6,00,00,00,00,5D,C8,00,00,
4296574986,0000054B,false,Rx,0,8,00,48,88,12,0C,00,00,00,
4296575622,0000054C,false,Rx,0,8,8F,66,40,00,00,40,7D,00,
4296576612,0000054F,false,Rx,0,8,45,01,00,00,07,C0,88,33,
4296579804,0000011A,false,Rx,0,8,11,40,00,55,00,00,01,65,
4296581445,000001DB,false,Rx,0,8,FF,C0,C0,6A,00,00,01,0B,
4296581665,000001DC,false,Rx,0,8,6E,04,1F,FD,01,08,D1,84,
4296590245,000001D4,false,Rx,0,8,F7,07,00,00,47,46,00,BC,
4296590310,000001F2,false,Rx,0,8,10,64,00,00,00,1E,01,0D,
4296590373,000001DA,false,Rx,0,8,C2,64,18,00,00,01,01,A3,
4296590436,0000011A,false,Rx,0,8,11,40,00,55,40,00,02,A8,
4296591427,000001DB,false,Rx,0,8,FF,C0,C0,6A,00,00,02,01,
4296591648,000001DC,false,Rx,0,8,6E,04,1F,FD,04,D8,C6,8F,
4296594064,000001D4,false,Rx,0,8,F7,07,00,00,87,46,00,70,
4296594277,000001DA,false,Rx,0,8,C2,64,18,00,00,01,02,A9,
4296594563,000001F2,false,Rx,0,8,10,64,00,00,00,1E,02,0E,
4296594795,00000284,false,Rx,0,8,00,00,00,00,00,00,90,16,
4296595008,0000050A,false,Rx,0,6,85,12,A0,1D,80,20,00,00,
4296599819,0000011A,false,Rx,0,8,11,40,00,AA,80,00,03,BE,
4296601461,000001DB,false,Rx,0,8,FF,A0,C0,6A,00,00,03,77,
4296601683,000001DC,false,Rx,0,8,6E,04,1F,FD,08,C0,C7,C0,
4296604158,000001DA,false,Rx,0,8,C2,64,18,00,00,01,03,2C,
4296604374,000001D4,false,Rx,0,8,F7,07,00,00,C7,46,00,B7,
4296604654,000001F2,false,Rx,0,8,10,64,00,00,00,1E,03,0F,
4296609037,0000011A,false,Rx,0,8,11,40,00,AA,C0,00,00,73,
4296611454,000001DB,false,Rx,0,8,FF,A0,C0,6A,00,00,00,7D,
4296611675,000001DC,false,Rx,0,8,6E,04,1F,FD,0C,C4,C0,64,
4296614147,000001DA,false,Rx,0,8,C2,64,18,00,00,01,00,26,
4296614606,000001D4,false,Rx,0,8,F7,07,00,00,07,46,00,7B,
4296614819,000001F2,false,Rx,0,8,10,64,00,00,00,1E,00,0C,
4296615092,00000284,false,Rx,0,8,00,00,00,00,00,00,91,17,
4296615307,00000380,false,Rx,0,8,02,04,10,21,00,00,00,AF,
4296615527,0000050B,false,Rx,0,6,00,00,06,C0,00,60,00,00,
4296615740,000005BF,false,Rx,0,8,00,00,00,00,28,00,00,3C,
4296619770,0000011A,false,Rx,0,8,11,40,00,55,00,00,01,65,
4296621411,000001DB,false,Rx,0,8,FF,A0,C0,6A,00,00,01,F8,
4296621691,000001DC,false,Rx,0,8,6E,04,1F,FD,01,08,D1,84,
4296624165,000001DA,false,Rx,0,8,C2,64,18,00,00,01,01,A3,
4296624802,000001D4,false,Rx,0,8,F7,07,00,00,47,46,00,BC,
4296625075,000001F2,false,Rx,0,8,10,64,00,00,00,1E,01,0D,
4296629457,0000011A,false,Rx,0,8,11,40,00,55,40,00,02,A8,
4296631457,000001DB,false,Rx,0,8,FF,A0,C0,6A,00,00,02,F2,
4296631679,000001DC,false,Rx,0,8,6E,04,1F,FD,04,D8,C6,8F,
4296634155,000001DA,false,Rx,0,8,C2,64,18,00,00,01,02,A9,
4296634371,0000055A,false,Rx,0,8,00,44,41,00,5F,43,5B,08,
4296635006,000001D4,false,Rx,0,8,F7,07,00,00,87,46,00,70,
4296635278,000001F2,false,Rx,0,8,10,64,00,00,00,1E,02,0E,
4296635495,00000284,false,Rx,0,8,00,00,00,00,00,00,92,18,
4296639770,0000011A,false,Rx,0,8,11,40,00,AA,80,00,03,BE,
4296647331,000001DB,false,Rx,0,8,FF,C0,C0,6A,00,00,03,84,
4296647395,000001DC,false,Rx,0,8,6E,04,1F,FD,08,C0,C7,C0,
4296647458,000001DA,false,Rx,0,8,C2,64,18,00,00,01,03,2C,
4296647530,000001D4,false,Rx,0,8,F7,07,00,00,C7,46,00,B7,
4296647593,000001F2,false,Rx,0,8,10,64,00,00,00,1E,03,0F,
4296648937,0000011A,false,Rx,0,8,11,40,00,AA,C0,00,00,73,
4296651413,000001DB,false,Rx,0,8,FF,C0,C0,6A,00,00,00,8E,
4296651694,000001DC,false,Rx,0,8,6E,04,1F,FD,0C,C4,C0,64,
4296654168,000001DA,false,Rx,0,8,C2,64,18,00,00,01,00,26,
4296655521,000001D4,false,Rx,0,8,F7,07,00,00,07,46,00,7B,
4296655733,000001F2,false,Rx,0,8,10,64,00,00,00,1E,00,0C,
4296656006,00000284,false,Rx,0,8,00,00,00,00,00,00,93,19,
4296659742,0000011A,false,Rx,0,8,11,40,00,55,00,00,01,65,
4296661640,000001DB,false,Rx,0,8,FF,C0,C0,6A,00,00,01,0B,
4296661853,000001DC,false,Rx,0,8,6E,04,1F,FD,01,08,D1,84,
4296662066,0000055B,false,Rx,0,8,AC,00,55,00,E3,40,12,E4,
4296664186,000001DA,false,Rx,0,8,C2,64,18,00,00,01,01,A3,
4296665835,000001D4,false,Rx,0,8,F7,07,00,00,47,46,00,BC,
4296666048,000001F2,false,Rx,0,8,10,64,00,00,00,1E,01,0D,
4296667394,0000056E,false,Rx,0,1,46,00,00,00,00,00,00,00,
4296669467,0000011A,false,Rx,0,8,11,40,00,55,40,00,02,A8,
4296671411,000001DB,false,Rx,0,8,FF,C0,C0,6A,00,00,02,01,
4296671691,000001DC,false,Rx,0,8,6E,04,1F,FD,04,D8,C6,8F,
4296673692,0000054A,false,Rx,0,8,10,00,70,06,22,00,00,3E,
4296674142,000001DA,false,Rx,0,8,C2,64,18,00,00,01,02,A9,
4296674660,0000054B,false,Rx,0,8,00,48,88,12,0C,00,00,00,
4296675652,0000054C,false,Rx,0,8,8F,66,40,00,00,40,7D,00,
4296676102,000001D4,false,Rx,0,8,F7,07,00,00,87,46,00,70,
4296676316,000001F2,false,Rx,0,8,10,64,00,00,00,1E,02,0E,
4296676597,00000284,false,Rx,0,8,00,00,00,00,00,00,94,1A,
4296676810,0000050C,false,Rx,0,6,00,00,00,01,B2,31,00,00,
4296677023,0000054F,false,Rx,0,8,45,01,00,00,07,00,88,33,
4296679742,0000011A,false,Rx,0,8,11,40,00,AA,80,00,03,BE,
4296681442,000001DB,false,Rx,0,8,FF,C0,C0,6A,00,00,03,84,
4296681662,000001DC,false,Rx,0,8,6E,04,1F,FD,08,C0,C7,C0,
4296684136,000001DA,false,Rx,0,8,C2,64,18,00,00,01,03,2C,
4296686259,000001D4,false,Rx,0,8,F7,07,00,00,C7,46,00,B7,
4296686484,000001F2,false,Rx,0,8,10,64,00,00,00,1E,03,0F,
4296689025,0000011A,false,Rx,0,8,11,40,00,AA,C0,00,00,73,
4296691443,000001DB,false,Rx,0,8,FF,C0,C0,6A,00,00,00,8E,
4296691663,000001DC,false,Rx,0,8,6E,04,1F,FD,0C,C4,C0,64,
4296694141,000001DA,false,Rx,0,8,C2,64,18,00,00,01,00,26,
4296696517,000001D4,false,Rx,0,8,F7,07,00,00,07,46,00,7B,
4296696748,000001F2,false,Rx,0,8,10,64,00,00,00,1E,00,0C,
4296697021,00000284,false,Rx,0,8,00,00,00,00,00,00,95,1B,
4296697175,0000050A,false,Rx,0,6,85,32,A0,1D,80,20,00,00,
4296705172,0000011A,false,Rx,0,8,11,40,00,55,00,00,01,65,
4296705237,000001DB,false,Rx,0,8,FF,C0,C0,6A,00,00,01,0B,
4296705300,000001DC,false,Rx,0,8,6E,04,1F,FD,01,08,D1,84,
4296705364,000001DA,false,Rx,0,8,C2,64,18,00,00,01,01,A3,
4296706717,000001D4,false,Rx,0,8,F7,07,00,00,47,46,00,BC,
4296706989,000001F2,false,Rx,0,8,10,64,00,00,00,1E,01,0D,
4296709408,0000011A,false,Rx,0,8,11,40,00,55,40,00,02,A8,
4296711411,000001DB,false,Rx,0,8,FF,C0,C0,6A,00,00,02,01,
4296711690,000001DC,false,Rx,0,8,6E,04,1F,FD,04,D8,C6,8F,
4296714165,000001DA,false,Rx,0,8,C2,64,18,00,00,01,02,A9,
4296715214,00000380,false,Rx,0,8,02,04,10,21,00,00,00,B0,
4296715430,000005BF,false,Rx,0,8,00,00,00,00,28,00,00,09,
4296717018,000001D4,false,Rx,0,8,F7,07,00,00,87,46,00,70,
4296717232,000001F2,false,Rx,0,8,10,64,00,00,00,1E,02,0E,
4296717513,00000284,false,Rx,0,8,00,00,00,00,00,00,96,1C,
4296717727,0000050B,false,Rx,0,6,00,00,06,C0,00,60,00,00,
4296719730,0000011A,false,Rx,0,8,11,40,00,AA,80,00,03,BE,
4296721430,000001DB,false,Rx,0,8,FF,C0,C0,6A,00,00,03,84,
4296721651,000001DC,false,Rx,0,8,6E,04,1F,FD,08,C0,C7,C0,
4296724126,000001DA,false,Rx,0,8,C2,64,18,00,00,01,03,2C,
4296727201,000001D4,false,Rx,0,8,F7,07,00,00,C7,46,00,B7,
4296727476,000001F2,false,Rx,0,8,10,64,00,00,00,1E,03,0F,
4296728946,0000011A,false,Rx,0,8,11,40,00,AA,C0,00,00,73,
4296731425,000001DB,false,Rx,0,8,FF,C0,C0,6A,00,00,00,8E,
4296731647,000001DC,false,Rx,0,8,6E,04,1F,FD,0C,C4,C0,64,
4296734124,000001DA,false,Rx,0,8,C2,64,18,00,00,01,00,26,
4296734399,0000055A,false,Rx,0,8,00,44,41,00,5F,43,5B,08,
4296737473,000001D4,false,Rx,0,8,F7,07,00,00,07,46,00,7B,
4296737753,000001F2,false,Rx,0,8,10,64,00,00,00,1E,00,0C,
4296737967,00000284,false,Rx,0,8,00,00,00,00,00,00,97,1D,
4296739736,0000011A,false,Rx,0,8,11,40,00,55,00,00,01,65,
4296741439,000001DB,false,Rx,0,8,FF,A0,C0,6A,00,00,01,F8,
4296741661,000001DC,false,Rx,0,8,6E,04,1F,FD,01,08,D1,84,
4296744136,000001DA,false,Rx,0,8,C2,64,18,00,00,01,01,A3,
4296747695,000001D4,false,Rx,0,8,F7,07,00,00,47,46,00,BC,
4296747967,000001F2,false,Rx,0,8,10,64,00,00,00,1E,01,0D,
4296749433,0000011A,false,Rx,0,8,11,40,00,55,40,00,02,A8,
4296751437,000001DB,false,Rx,0,8,FF,A0,C0,6A,00,00,02,F2,
4296751659,000001DC,false,Rx,0,8,6E,04,1F,FD,04,D8,C6,8F,
4296754136,000001DA,false,Rx,0,8,C2,64,18,00,00,01,02,A9,
4296761915,000001D4,false,Rx,0,8,F7,07,00,00,87,46,00,70,
4296761980,000001F2,false,Rx,0,8,10,64,00,00,00,1E,02,0E,
4296762076,00000284,false,Rx,0,8,00,00,00,00,00,00,98,1E,
4296762139,0000011A,false,Rx,0,8,11,40,00,AA,80,00,03,BE,
4296762202,000001DB,false,Rx,0,8,FF,A0,C0,6A,00,00,03,77,
4296762265,000001DC,false,Rx,0,8,6E,04,1F,FD,08,C0,C7,C0,
4296762330,0000055B,false,Rx,0,8,AC,00,55,00,E3,40,13,61,
4296764154,000001DA,false,Rx,0,8,C2,64,18,00,00,01,03,2C,
4296767287,0000056E,false,Rx,0,1,46,00,00,00,00,00,00,00,
4296768277,000001D4,false,Rx,0,8,F7,07,00,00,C7,46,00,B7,
4296768492,000001F2,false,Rx,0,8,10,64,00,00,00,1E,03,0F,
4296768950,0000011A,false,Rx,0,8,11,40,00,AA,C0,00,00,73,
4296771439,000001DB,false,Rx,0,8,FF,A0,C0,6A,00,00,00,7D,
4296771660,000001DC,false,Rx,0,8,6E,04,1F,FD,0C,C4,C0,64,
4296773782,0000054A,false,Rx,0,8,9E,00,70,06,22,00,00,3E,
4296774113,000001DA,false,Rx,0,8,C2,64,18,00,00,01,00,26,
4296774748,0000054B,false,Rx,0,8,00,48,88,12,0C,00,00,00,
4296775737,0000054C,false,Rx,0,8,8F,66,40,00,00,40,7D,00,
4296776730,0000054F,false,Rx,0,8,45,01,00,00,07,40,88,33,
4296778553,000001D4,false,Rx,0,8,F7,07,00,00,07,46,00,7B,
4296778824,000001F2,false,Rx,0,8,10,64,00,00,00,1E,00,0C,
4296779096,00000284,false,Rx,0,8,00,00,00,00,00,00,99,1F,
4296779251,0000050C,false,Rx,0,6,00,00,00,02,B2,0D,00,00,
4296779711,0000011A,false,Rx,0,8,11,40,00,55,00,00,01,65,
4296781411,000001DB,false,Rx,0,8,FF,A0,C0,6A,00,00,01,F8,
4296781633,000001DC,false,Rx,0,8,6E,04,1F,FD,01,08,D1,84,
4296784165,000001DA,false,Rx,0,8,C2,64,18,00,00,01,01,A3,
4296788689,000001D4,false,Rx,0,8,F7,07,00,00,47,46,00,BC,
4296788903,000001F2,false,Rx,0,8,10,64,00,00,00,1E,01,0D,
4296789175,000005A9,false,Rx,0,8,7A,17,20,10,83,E0,00,00,
4296789390,0000011A,false,Rx,0,8,11,40,00,55,40,00,02,A8,
4296791393,000001DB,false,Rx,0,8,FF,A0,C0,6A,00,00,02,F2,
4296791674,000001DC,false,Rx,0,8,6E,04,1F,FD,04,D8,C6,8F,
4296794149,000001DA,false,Rx,0,8,C2,64,18,00,00,01,02,A9,
4296798957,000001D4,false,Rx,0,8,F7,07,00,00,87,46,00,70,
4296799230,000001F2,false,Rx,0,8,10,64,00,00,00,1E,02,0E,
4296799452,00000284,false,Rx,0,8,00,00,00,00,00,00,9A,20,
4296799696,0000011A,false,Rx,0,8,11,40,00,AA,80,00,03,BE,
4296799909,0000050A,false,Rx,0,6,85,52,A0,1D,80,20,00,00,
4296801437,000001DB,false,Rx,0,8,FF,A0,C0,6A,00,00,03,77,
4296801659,000001DC,false,Rx,0,8,6E,04,1F,FD,08,C0,C7,C0,
4296804136,000001DA,false,Rx,0,8,C2,64,18,00,00,01,03,2C,
4296808887,0000011A,false,Rx,0,8,11,40,00,AA,C0,00,00,73,
4296809160,000001D4,false,Rx,0,8,F7,07,00,00,C7,46,00,B7,
4296809434,000001F2,false,Rx,0,8,10,64,00,00,00,1E,03,0F,
4296811439,000001DB,false,Rx,0,8,FF,C0,C0,6A,00,00,00,8E,
4296811659,000001DC,false,Rx,0,8,6E,04,1F,FD,0C,C4,C0,64,
4296819972,000001DA,false,Rx,0,8,C2,64,18,00,00,01,00,26,
4296820037,00000380,false,Rx,0,8,02,04,10,21,00,00,00,8D,
4296820100,000005BF,false,Rx,0,8,00,00,00,00,28,00,00,1A,
4296820196,000001D4,false,Rx,0,8,F7,07,00,00,07,46,00,7B,
4296820259,0000011A,false,Rx,0,8,11,40,00,55,00,00,01,65,
4296820355,000001F2,false,Rx,0,8,10,64,00,00,00,1E,00,0C,
4296820418,00000284,false,Rx,0,8,00,00,00,00,00,00,9B,21,
4296820482,0000050B,false,Rx,0,6,00,00,06,C0,00,60,00,00,
4296821413,000001DB,false,Rx,0,8,FF,C0,C0,6A,00,00,01,0B,
4296821634,000001DC,false,Rx,0,8,6E,04,1F,FD,01,08,D1,84,
4296824107,000001DA,false,Rx,0,8,C2,64,18,00,00,01,01,A3,
4296829388,0000011A,false,Rx,0,8,11,40,00,55,40,00,02,A8,
4296829668,000001D4,false,Rx,0,8,F7,07,00,00,47,46,00,BC,
4296829882,000001F2,false,Rx,0,8,10,64,00,00,00,1E,01,0D,
4296831404,000001DB,false,Rx,0,8,FF,C0,C0,6A,00,00,02,01,
4296831625,000001DC,false,Rx,0,8,6E,04,1F,FD,04,D8,C6,8F,
4296834127,000001DA,false,Rx,0,8,C2,64,18,00,00,01,02,A9,
4296834343,0000055A,false,Rx,0,8,00,44,41,00,5F,43,5B,08,
4296839689,0000011A,false,Rx,0,8,11,40,00,AA,80,00,03,BE,
4296839902,000001D4,false,Rx,0,8,F7,07,00,00,87,46,00,70,
4296840175,000001F2,false,Rx,0,8,10,64,00,00,00,1E,02,0E,
4296840390,00000284,false,Rx,0,8,00,00,00,00,00,00,9C,22,
4296841439,000001DB,false,Rx,0,8,FF,C0,C0,6A,00,00,03,84,
4296841661,000001DC,false,Rx,0,8,6E,04,1F,FD,08,C0,C7,C0,
4296844137,000001DA,false,Rx,0,8,C2,64,18,00,00,01,03,2C,
4296848888,0000011A,false,Rx,0,8,11,40,00,AA,C0,00,00,73,
4296850113,000001D4,false,Rx,0,8,F7,07,00,00,C7,46,00,B7,
4296850387,000001F2,false,Rx,0,8,10,64,00,00,00,1E,03,0F,
4296851436,000001DB,false,Rx,0,8,FF,C0,C0,6A,00,00,00,8E,
4296851658,000001DC,false,Rx,0,8,6E,04,1F,FD,0C,C4,C0,64,
4296854136,000001DA,false,Rx,0,8,C2,64,18,00,00,01,00,26,
4296859658,0000011A,false,Rx,0,8,11,40,00,55,00,00,01,65,
4296860408,000001D4,false,Rx,0,8,F7,07,00,00,07,46,00,7B,
4296860628,000001F2,false,Rx,0,8,10,64,00,00,00,1E,00,0C,
4296860900,00000284,false,Rx,0,8,00,00,00,00,00,00,9D,23,
4296861054,000005B9,false,Rx,0,5,40,78,51,2C,28,00,00,00,
4296861584,000001DB,false,Rx,0,8,FF,C0,C0,6A,00,00,01,0B,
4296861856,000001DC,false,Rx,0,8,6E,04,1F,FD,01,08,D1,84,
4296862070,0000055B,false,Rx,0,8,AC,00,55,00,E3,40,10,6B,
4296864134,000001DA,false,Rx,0,8,C2,64,18,00,00,01,01,A3,
4296867335,0000056E,false,Rx,0,1,46,00,00,00,00,00,00,00,
4296869349,0000011A,false,Rx,0,8,11,40,00,55,40,00,02,A8,
4296877054,000001D4,false,Rx,0,8,F7,07,00,00,47,46,00,BC,
4296877118,000001F2,false,Rx,0,8,10,64,00,00,00,1E,01,0D,
4296877181,00000284,false,Rx,0,8,00,00,00,00,00,00,9E,24,
4296877244,000001DB,false,Rx,0,8,FF,C0,C0,6A,00,00,02,01,
4296877310,000001DC,false,Rx,0,8,6E,04,1F,FD,04,D8,C6,8F,
4296877373,000005BC,false,Rx,0,8,25,03,29,39,90,06,21,2C,
4296877436,000005C0,false,Rx,0,8,80,72,72,00,66,D0,00,00,
4296877499,0000054A,false,Rx,0,8,10,00,70,06,22,00,00,3E,
4296877570,000001DA,false,Rx,0,8,C2,64,18,00,00,01,02,A9,
4296877634,0000054B,false,Rx,0,8,00,48,88,12,0C,00,00,00,
4296877697,0000054C,false,Rx,0,8,8F,66,40,00,00,40,7D,00,
4296877760,0000054F,false,Rx,0,8,45,01,00,00,07,80,88,33,
4296879644,0000011A,false,Rx,0,8,11,40,00,AA,80,00,03,BE,
4296880987,000001D4,false,Rx,0,8,F7,07,00,00,87,46,00,70,
4296881200,000001F2,false,Rx,0,8,10,64,00,00,00,1E,02,0E,
4296881475,000001DB,false,Rx,0,8,FF,C0,C0,6A,00,00,03,84,
4296881696,000001DC,false,Rx,0,8,6E,04,1F,FD,08,C0,C7,C0,
4296881909,0000050C,false,Rx,0,6,00,00,00,03,B2,9A,00,00,
4296884148,000001DA,false,Rx,0,8,C2,64,18,00,00,01,03,2C,
4296888853,0000011A,false,Rx,0,8,11,40,00,AA,C0,00,00,73,
4296891153,000001D4,false,Rx,0,8,F7,07,00,00,C7,46,00,B7,
4296891367,000001F2,false,Rx,0,8,10,64,00,00,00,1E,03,0F,
4296891647,000001DB,false,Rx,0,8,FF,C0,C0,6A,00,00,00,8E,
4296891861,000001DC,false,Rx,0,8,6E,04,1F,FD,0C,C4,C0,64,
4296892074,00000284,false,Rx,0,8,00,00,00,00,00,00,9F,25,
4296894136,000001DA,false,Rx,0,8,C2,64,18,00,00,01,00,26,
4296899618,0000011A,false,Rx,0,8,11,40,00,55,00,00,01,65,
4296901379,000001D4,false,Rx,0,8,F7,07,00,00,07,46,00,7B,
4296901626,000001DB,false,Rx,0,8,FF,A0,C0,6A,00,00,01,F8,
4296901840,000001DC,false,Rx,0,8,6E,04,1F,FD,01,08,D1,84,
4296902053,000001F2,false,Rx,0,8,10,64,00,00,00,1E,00,0C,
4296902267,0000050A,false,Rx,0,6,85,72,A0,1D,80,20,00,00,
4296904100,000001DA,false,Rx,0,8,C2,64,18,00,00,01,01,A3,
4296909322,0000011A,false,Rx,0,8,11,40,00,55,40,00,02,A8,
4296911383,000001DB,false,Rx,0,8,FF,A0,C0,6A,00,00,02,F2,
4296911663,000001D4,false,Rx,0,8,F7,07,00,00,47,46,00,BC,
4296911875,000001DC,false,Rx,0,8,6E,04,1F,FD,04,D8,C6,8F,
4296912088,000001F2,false,Rx,0,8,10,64,00,00,00,1E,01,0D,
4296912365,00000284,false,Rx,0,8,00,00,00,00,00,00,A0,26,
4296914129,000001DA,false,Rx,0,8,C2,64,18,00,00,01,02,A9,
4296915419,00000380,false,Rx,0,8,02,04,10,21,00,00,00,9E,
4296915641,000005BF,false,Rx,0,8,00,00,00,00,28,00,00,2B,
4296919612,0000011A,false,Rx,0,8,11,40,00,AA,80,00,03,BE,
4296921430,000001DB,false,Rx,0,8,FF,A0,C0,6A,00,00,03,77,
4296921651,000001DC,false,Rx,0,8,6E,04,1F,FD,08,C0,C7,C0,
4296921864,000001D4,false,Rx,0,8,F7,07,00,00,87,46,00,70,
4296922137,000001F2,false,Rx,0,8,10,64,00,00,00,1E,02,0E,
4296922352,0000050B,false,Rx,0,6,00,00,06,C0,00,60,00,00,
4296924116,000001DA,false,Rx,0,8,C2,64,18,00,00,01,03,2C,
4296935568,0000011A,false,Rx,0,8,11,40,00,AA,C0,00,00,73,
4296935633,000001DB,false,Rx,0,8,FF,A0,C0,6A,00,00,00,7D,
4296935696,000001DC,false,Rx,0,8,6E,04,1F,FD,0C,C4,C0,64,
4296935759,000001D4,false,Rx,0,8,F7,07,00,00,C7,46,00,B7,
4296935822,000001F2,false,Rx,0,8,10,64,00,00,00,1E,03,0F,
4296935885,00000284,false,Rx,0,8,00,00,00,00,00,00,A1,27,
4296935949,000001DA,false,Rx,0,8,C2,64,18,00,00,01,00,26,
4296936012,0000055A,false,Rx,0,8,00,44,41,00,5F,43,5B,08,
4296939629,0000011A,false,Rx,0,8,11,40,00,55,00,00,01,65,
4296941386,000001DB,false,Rx,0,8,FF,A0,C0,6A,00,00,01,F8,
4296941666,000001DC,false,Rx,0,8,6E,04,1F,FD,01,08,D1,84,
4296942353,000001D4,false,Rx,0,8,F7,07,00,00,07,46,00,7B,
4296942568,000001F2,false,Rx,0,8,10,64,00,00,00,1E,00,0C,
4296944148,000001DA,false,Rx,0,8,C2,64,18,00,00,01,01,A3,
4296949308,0000011A,false,Rx,0,8,11,40,00,55,40,00,02,A8,
4296951427,000001DB,false,Rx,0,8,FF,A0,C0,6A,00,00,02,F2,
4296951649,000001DC,false,Rx,0,8,6E,04,1F,FD,04,D8,C6,8F,
4296952578,000001D4,false,Rx,0,8,F7,07,00,00,47,46,00,BC,
4296952791,000001F2,false,Rx,0,8,10,64,00,00,00,1E,01,0D,
4296953063,00000284,false,Rx,0,8,00,00,00,00,00,00,A2,28,
4296954112,000001DA,false,Rx,0,8,C2,64,18,00,00,01,02,A9,
4296959576,0000011A,false,Rx,0,8,11,40,00,AA,80,00,03,BE,
4296961577,000001DB,false,Rx,0,8,FF,A0,C0,6A,00,00,03,77,
4296961791,000001DC,false,Rx,0,8,6E,04,1F,FD,08,C0,C7,C0,
4296962063,0000055B,false,Rx,0,8,AC,00,55,00,E3,40,11,EE,
4296962817,000001D4,false,Rx,0,8,F7,07,00,00,87,46,00,70,
4296963031,000001F2,false,Rx,0,8,10,64,00,00,00,1E,02,0E,
4296964140,000001DA,false,Rx,0,8,C2,64,18,00,00,01,03,2C,
4296967451,0000056E,false,Rx,0,1,46,00,00,00,00,00,00,00,
4296968802,0000011A,false,Rx,0,8,11,40,00,AA,C0,00,00,73,
4296971408,000001DB,false,Rx,0,8,FF,A0,C0,6A,00,00,00,7D,
4296971629,000001DC,false,Rx,0,8,6E,04,1F,FD,0C,C4,C0,64,
4296973150,000001D4,false,Rx,0,8,F7,07,00,00,C7,46,00,B7,
4296973367,000001F2,false,Rx,0,8,10,64,00,00,00,1E,03,0F,
4296973647,00000284,false,Rx,0,8,00,00,00,00,00,00,A3,29,
4296973920,0000054A,false,Rx,0,8,9E,00,70,06,22,00,00,3E,
4296974133,000001DA,false,Rx,0,8,C2,64,18,00,00,01,00,26,
4296974887,0000054B,false,Rx,0,8,00,48,88,12,0C,00,00,00,
4296975876,0000054C,false,Rx,0,8,8F,66,40,00,00,40,7D,00,
4296976925,0000054F,false,Rx,0,8,45,01,00,00,07,C0,88,33,
4296979586,0000011A,false,Rx,0,8,11,40,00,55,00,00,01,65,
4296981404,000001DB,false,Rx,0,8,FF,A0,C0,6A,00,00,01,F8,
4296981626,000001DC,false,Rx,0,8,6E,04,1F,FD,01,08,D1,84,
4296983386,000001D4,false,Rx,0,8,F7,07,00,00,07,46,00,7B,
4296983608,000001F2,false,Rx,0,8,10,64,00,00,00,1E,00,0C,
4296983820,0000050C,false,Rx,0,6,00,00,00,00,B2,A6,00,00,
4296984092,000001DA,false,Rx,0,8,C2,64,18,00,00,01,01,A3,
4296993626,0000011A,false,Rx,0,8,11,40,00,55,40,00,02,A8,
4296993690,000001DB,false,Rx,0,8,FF,A0,C0,6A,00,00,02,F2,
4296993794,000001DC,false,Rx,0,8,6E,04,1F,FD,04,D8,C6,8F,
4296993857,000001D4,false,Rx,0,8,F7,07,00,00,47,46,00,BC,
4296993920,000001F2,false,Rx,0,8,10,64,00,00,00,1E,01,0D,
4296994015,00000284,false,Rx,0,8,00,00,00,00,00,00,A4,2A,
4296994288,000001DA,false,Rx,0,8,C2,64,18,00,00,01,02,A9,
4296999568,0000011A,false,Rx,0,8,11,40,00,AA,80,00,03,BE,
4297001385,000001DB,false,Rx,0,8,FF,C0,C0,6A,00,00,03,84,
4297001664,000001DC,false,Rx,0,8,6E,04,1F,FD,08,C0,C7,C0,
4297003789,000001D4,false,Rx,0,8,F7,07,00,00,87,46,00,70,
4297004002,000001F2,false,Rx,0,8,10,64,00,00,00,1E,02,0E,
4297004275,000001DA,false,Rx,0,8,C2,64,18,00,00,01,03,2C,
4297004448,0000050A,false,Rx,0,6,85,12,A0,1D,80,20,00,00,
4297008804,0000011A,false,Rx,0,8,11,40,00,AA,C0,00,00,73,
4297011397,000001DB,false,Rx,0,8,FF,C0,C0,6A,00,00,00,8E,
4297011618,000001DC,false,Rx,0,8,6E,04,1F,FD,0C,C4,C0,64,
4297014036,000001D4,false,Rx,0,8,F7,07,00,00,C7,46,00,B7,
4297014310,000001DA,false,Rx,0,8,C2,64,18,00,00,01,00,26,
4297014532,000001F2,false,Rx,0,8,10,64,00,00,00,1E,03,0F,
4297014745,00000284,false,Rx,0,8,00,00,00,00,00,00,A5,2B,
4297015492,00000380,false,Rx,0,8,02,04,10,21,00,00,00,AF,
4297015772,000005BF,false,Rx,0,8,00,00,00,00,28,00,00,3C,
4297019564,0000011A,false,Rx,0,8,11,40,00,55,00,00,01,65,
4297021382,000001DB,false,Rx,0,8,FF,C0,C0,6A,00,00,01,0B,
4297021662,000001DC,false,Rx,0,8,6E,04,1F,FD,01,08,D1,84,
4297024077,000001DA,false,Rx,0,8,C2,64,18,00,00,01,01,A3,
4297024357,000001D4,false,Rx,0,8,F7,07,00,00,07,46,00,7B,
4297024579,000001F2,false,Rx,0,8,10,64,00,00,00,1E,00,0C,
4297024792,0000050B,false,Rx,0,6,00,00,06,C0,00,60,00,00,
4297029232,0000011A,false,Rx,0,8,11,40,00,55,40,00,02,A8,
4297031414,000001DB,false,Rx,0,8,FF,C0,C0,6A,00,00,02,01,
4297031635,000001DC,false,Rx,0,8,6E,04,1F,FD,04,D8,C6,8F,
4297034109,000001DA,false,Rx,0,8,C2,64,18,00,00,01,02,A9,
4297034323,0000055A,false,Rx,0,8,00,44,41,00,5F,43,5B,08,
4297034537,000001D4,false,Rx,0,8,F7,07,00,00,47,46,00,BC,
4297034809,000001F2,false,Rx,0,8,10,64,00,00,00,1E,01,0D,
4297035081,00000284,false,Rx,0,8,00,00,00,00,00,00,A6,2C,
4297039524,0000011A,false,Rx,0,8,11,40,00,AA,80,00,03,BE,
4297041407,000001DB,false,Rx,0,8,FF,C0,C0,6A,00,00,03,84,
4297041629,000001DC,false,Rx,0,8,6E,04,1F,FD,08,C0,C7,C0,
4297050549,000001DA,false,Rx,0,8,C2,64,18,00,00,01,03,2C,
4297050614,000001D4,false,Rx,0,8,F7,07,00,00,87,46,00,70,
4297050677,000001F2,false,Rx,0,8,10,64,00,00,00,1E,02,0E,
4297050740,0000011A,false,Rx,0,8,11,40,00,AA,C0,00,00,73,
4297051368,000001DB,false,Rx,0,8,FF,A0,C0,6A,00,00,00,7D,
4297051649,000001DC,false,Rx,0,8,6E,04,1F,FD,0C,C4,C0,64,
4297054124,000001DA,false,Rx,0,8,C2,64,18,00,00,01,00,26,
4297054996,000001D4,false,Rx,0,8,F7,07,00,00,C7,46,00,B7,
4297055269,000001F2,false,Rx,0,8,10,64,00,00,00,1E,03,0F,
4297055485,00000284,false,Rx,0,8,00,00,00,00,00,00,A7,2D,
4297059518,0000011A,false,Rx,0,8,11,40,00,55,00,00,01,65,
4297061587,000001DB,false,Rx,0,8,FF,A0,C0,6A,00,00,01,F8,
4297061801,000001DC,false,Rx,0,8,6E,04,1F,FD,01,08,D1,84,
4297062014,0000055B,false,Rx,0,8,AC,00,AA,00,E3,40,12,A3,
4297064077,000001DA,false,Rx,0,8,C2,64,18,00,00,01,01,A3,
4297065244,000001D4,false,Rx,0,8,F7,07,00,00,07,46,00,7B,
4297065526,000001F2,false,Rx,0,8,10,64,00,00,00,1E,00,0C,
4297067400,0000056E,false,Rx,0,1,46,00,00,00,00,00,00,00,
4297069228,0000011A,false,Rx,0,8,11,40,00,55,40,00,02,A8,
4297071411,000001DB,false,Rx,0,8,FF,A0,C0,6A,00,00,02,F2,
4297071633,000001DC,false,Rx,0,8,6E,04,1F,FD,04,D8,C6,8F,
4297073989,0000054A,false,Rx,0,8,10,00,70,06,22,00,00,3E,
4297074202,000001DA,false,Rx,0,8,C2,64,18,00,00,01,02,A9,
4297074957,0000054B,false,Rx,0,8,00,48,88,12,0C,00,00,00,
4297075534,000001D4,false,Rx,0,8,F7,07,00,00,47,46,00,BC,
4297075747,000001F2,false,Rx,0,8,10,64,00,00,00,1E,01,0D,
4297076020,00000284,false,Rx,0,8,00,00,00,00,00,00,A8,2E,
4297076233,0000054C,false,Rx,0,8,8F,66,40,00,00,40,7D,00,
4297076987,0000054F,false,Rx,0,8,45,01,00,00,07,00,88,33,
4297079531,0000011A,false,Rx,0,8,11,40,00,AA,80,00,03,BE,
4297081408,000001DB,false,Rx,0,8,FF,A0,C0,6A,00,00,03,77,
4297081628,000001DC,false,Rx,0,8,6E,04,1F,FD,08,C0,C7,C0,
4297084071,000001DA,false,Rx,0,8,C2,64,18,00,00,01,03,2C,
4297085795,000001D4,false,Rx,0,8,F7,07,00,00,87,46,00,70,
4297086067,000001F2,false,Rx,0,8,10,64,00,00,00,1E,02,0E,
4297086281,0000050C,false,Rx,0,6,00,00,00,01,5D,5F,00,00,
4297088783,0000011A,false,Rx,0,8,11,40,00,AA,C0,00,00,73,
4297091380,000001DB,false,Rx,0,8,FF,A0,C0,6A,00,00,00,7D,
4297091602,000001DC,false,Rx,0,8,6E,04,1F,FD,0C,C4,C0,64,
4297094078,000001DA,false,Rx,0,8,C2,64,18,00,00,01,00,26,
4297095965,000001D4,false,Rx,0,8,F7,07,00,00,C7,46,00,B7,
4297096238,000001F2,false,Rx,0,8,10,64,00,00,00,1E,03,0F,
4297096453,00000284,false,Rx,0,8,00,00,00,00,00,00,A9,2F,
4297099534,0000011A,false,Rx,0,8,11,40,00,55,00,00,01,65,
4297108015,000001DB,false,Rx,0,8,FF,C0,C0,6A,00,00,01,0B,
4297108080,000001DC,false,Rx,0,8,6E,04,1F,FD,01,08,D1,84,
4297108143,000001DA,false,Rx,0,8,C2,64,18,00,00,01,01,A3,
4297108210,000001D4,false,Rx,0,8,F7,07,00,00,07,46,00,7B,
4297108281,000001F2,false,Rx,0,8,10,64,00,00,00,1E,00,0C,
4297108346,0000050A,false,Rx,0,6,85,32,A0,1D,80,20,00,00,
4297109216,0000011A,false,Rx,0,8,11,40,00,55,40,00,02,A8,
4297111398,000001DB,false,Rx,0,8,FF,A0,C0,6A,00,00,02,F2,
4297111619,000001DC,false,Rx,0,8,6E,04,1F,FD,04,D8,C6,8F,
4297114096,000001DA,false,Rx,0,8,C2,64,18,00,00,01,02,A9,
4297115569,00000380,false,Rx,0,8,02,04,10,21,00,00,00,B0,
4297115841,000005BF,false,Rx,0,8,00,00,00,00,28,00,00,09,
4297116470,000001D4,false,Rx,0,8,F7,07,00,00,47,46,10,5F,
4297116691,000001F2,false,Rx,0,8,10,64,00,00,00,1E,01,0D,
4297116962,00000284,false,Rx,0,8,00,00,00,00,00,00,AA,30,
4297119498,0000011A,false,Rx,0,8,11,40,00,AA,80,00,03,BE,
4297121383,000001DB,false,Rx,0,8,FF,C0,C0,6A,00,00,03,84,
4297121605,000001DC,false,Rx,0,8,6E,04,1F,FD,08,C0,C7,C0,
4297124083,000001DA,false,Rx,0,8,C2,64,18,00,00,01,03,2C,
4297126744,000001D4,false,Rx,0,8,F7,07,00,00,87,46,10,93,
4297126958,000001F2,false,Rx,0,8,10,64,00,00,00,1E,02,0E,
4297127171,0000050B,false,Rx,0,6,00,00,06,C0,00,60,00,00,
4297128702,0000011A,false,Rx,0,8,11,40,00,AA,C0,00,00,73,
4297131413,000001DB,false,Rx,0,8,FF,C0,C0,6A,00,00,00,8E,
4297131635,000001DC,false,Rx,0,8,6E,04,1F,FD,0C,C4,C0,64,
4297134109,000001DA,false,Rx,0,8,C2,64,18,00,00,01,00,26,
4297134324,0000055A,false,Rx,0,8,00,44,41,00,5F,43,5B,08,
4297136984,000001D4,false,Rx,0,8,F7,07,00,00,C7,46,10,54,
4297137197,000001F2,false,Rx,0,8,10,64,00,00,00,1E,03,0F,
4297137474,00000284,false,Rx,0,8,00,00,00,00,00,00,AB,31,
4297139480,0000011A,false,Rx,0,8,11,40,00,55,00,00,01,65,
4297141368,000001DB,false,Rx,0,8,FF,C0,C0,6A,00,00,01,0B,
4297141648,000001DC,false,Rx,0,8,6E,04,1F,FD,01,08,D1,84,
4297144065,000001DA,false,Rx,0,8,C2,64,18,00,00,01,01,A3,
4297147202,000001D4,false,Rx,0,8,F7,07,00,00,07,46,30,DB,
4297147419,000001F2,false,Rx,0,8,10,64,00,00,00,1E,00,0C,
4297149427,0000011A,false,Rx,0,8,11,40,00,55,40,00,02,A8,
4297151370,000001DB,false,Rx,0,8,FF,C0,C0,6A,00,00,02,01,
4297151591,000001DC,false,Rx,0,8,6E,04,1F,FD,04,D8,C6,8F,
4297154065,000001DA,false,Rx,0,8,C2,64,18,00,00,01,02,A9,
4297157458,000001D4,false,Rx,0,8,F7,07,00,00,47,46,30,1C,
4297157679,000001F2,false,Rx,0,8,10,64,00,00,00,1E,01,0D,
4297157951,00000284,false,Rx,0,8,00,00,00,00,00,00,AC,32,
4297165359,0000011A,false,Rx,0,8,11,40,00,AA,80,00,03,BE,
4297165769,000001DB,false,Rx,0,8,FF,C0,C0,6A,00,00,03,84,
4297165832,000001DC,false,Rx,0,8,6E,04,1F,FD,08,C0,C7,C0,
4297165895,0000055B,false,Rx,0,8,AC,00,AA,00,E3,40,13,26,
4297165959,000001DA,false,Rx,0,8,C2,64,18,00,00,01,03,2C,
4297167382,0000056E,false,Rx,0,1,46,00,00,00,00,00,00,00,
4297167662,000001D4,false,Rx,0,8,F7,07,00,00,87,46,30,D0,
4297167935,000001F2,false,Rx,0,8,10,64,00,00,00,1E,02,0E,
4297168748,0000011A,false,Rx,0,8,11,40,00,AA,C0,00,00,73,
4297171410,000001DB,false,Rx,0,8,FF,C0,C0,6A,00,00,00,8E,
4297171632,000001DC,false,Rx,0,8,6E,04,1F,FD,0C,C4,C0,64,
4297174047,0000054A,false,Rx,0,8,9E,00,70,06,22,00,00,3E,
4297174322,000001DA,false,Rx,0,8,C2,64,18,00,00,01,00,26,
4297175074,0000054B,false,Rx,0,8,00,48,88,12,0C,00,00,00,
4297176065,0000054C,false,Rx,0,8,8F,66,40,00,00,40,7D,00,
4297177055,0000054F,false,Rx,0,8,45,01,00,00,07,40,88,33,
4297178045,000001D4,false,Rx,0,8,F7,07,00,00,C7,46,30,17,
4297178319,000001F2,false,Rx,0,8,10,64,00,00,00,1E,03,0F,
4297178540,00000284,false,Rx,0,8,00,00,00,00,00,00,AD,33,
4297179464,0000011A,false,Rx,0,8,11,40,00,55,00,00,01,65,
4297181407,000001DB,false,Rx,0,8,FF,A0,C0,6A,00,00,01,F8,
4297181629,000001DC,false,Rx,0,8,6E,04,1F,FD,01,08,D1,84,
4297184102,000001DA,false,Rx,0,8,C2,64,18,00,00,01,01,A3,
4297188202,000001D4,false,Rx,0,8,F7,07,00,00,07,46,30,DB,
4297188417,000001F2,false,Rx,0,8,10,64,00,00,00,1E,00,0C,
4297188637,0000050C,false,Rx,0,6,00,00,00,02,5D,63,00,00,
4297189382,0000011A,false,Rx,0,8,11,40,00,55,40,00,02,A8,
4297191384,000001DB,false,Rx,0,8,FF,A0,C0,6A,00,00,02,F2,
4297191605,000001DC,false,Rx,0,8,6E,04,1F,FD,04,D8,C6,8F,
4297194084,000001DA,false,Rx,0,8,C2,64,18,00,00,01,02,A9,
4297198411,000001D4,false,Rx,0,8,F7,07,00,00,47,46,30,1C,
4297198690,000001F2,false,Rx,0,8,10,64,00,00,00,1E,01,0D,
4297198904,00000284,false,Rx,0,8,00,00,00,00,00,00,AE,34,
4297199472,0000011A,false,Rx,0,8,11,40,00,AA,80,00,03,BE,
4297201359,000001DB,false,Rx,0,8,FF,A0,C0,6A,00,00,03,77,
4297201640,000001DC,false,Rx,0,8,6E,04,1F,FD,08,C0,C7,C0,
4297204054,000001DA,false,Rx,0,8,C2,64,18,00,00,01,03,2C,
4297208683,000001D4,false,Rx,0,8,F7,07,00,00,87,46,30,D0,
4297208895,0000011A,false,Rx,0,8,11,40,00,AA,C0,00,00,73,
4297209109,000001F2,false,Rx,0,8,10,64,00,00,00,1E,02,0E,
4297209340,0000050A,false,Rx,0,6,85,52,A0,1D,80,20,00,00,
4297211371,000001DB,false,Rx,0,8,FF,A0,C0,6A,00,00,00,7D,
4297211593,000001DC,false,Rx,0,8,6E,04,1F,FD,0C,C4,C0,64,
4297214068,000001DA,false,Rx,0,8,C2,64,18,00,00,01,00,26,
4297222795,00000380,false,Rx,0,8,02,04,10,21,00,00,00,8D,
4297222859,000005BF,false,Rx,0,8,00,00,00,00,28,00,00,1A,
4297222922,000001D4,false,Rx,0,8,F7,07,00,00,C7,46,30,17,
4297222985,000001F2,false,Rx,0,8,10,64,00,00,00,1E,03,0F,
4297223049,00000284,false,Rx,0,8,00,00,00,00,00,00,AF,35,
4297223112,0000011A,false,Rx,0,8,11,40,00,55,00,00,01,65,
4297223175,000001DB,false,Rx,0,8,FF,A0,C0,6A,00,00,01,F8,
4297223238,000001DC,false,Rx,0,8,6E,04,1F,FD,01,08,D1,84,
4297224050,000001DA,false,Rx,0,8,C2,64,18,00,00,01,01,A3,
4297229148,000001D4,false,Rx,0,8,F7,07,00,00,07,46,30,DB,
4297229364,000001F2,false,Rx,0,8,10,64,00,00,00,1E,00,0C,
4297229644,0000011A,false,Rx,0,8,11,40,00,55,40,00,02,A8,
4297229798,0000050B,false,Rx,0,6,00,00,06,C0,00,60,00,00,
4297231380,000001DB,false,Rx,0,8,FF,A0,C0,6A,00,00,02,F2,
4297231601,000001DC,false,Rx,0,8,6E,04,1F,FD,04,D8,C6,8F,
4297234078,000001DA,false,Rx,0,8,C2,64,18,00,00,01,02,A9,
4297234291,0000055A,false,Rx,0,8,00,44,41,00,5F,43,5B,08,
4297239392,000001D4,false,Rx,0,8,F7,07,00,00,47,46,30,1C,
4297239613,0000011A,false,Rx,0,8,11,40,00,AA,80,00,03,BE,
4297239885,000001F2,false,Rx,0,8,10,64,00,00,00,1E,01,0D,
4297240157,00000284,false,Rx,0,8,00,00,00,00,00,00,B0,36,
4297241386,000001DB,false,Rx,0,8,FF,80,C0,6A,00,00,03,26,
4297241607,000001DC,false,Rx,0,8,6E,04,1F,FD,08,C0,C7,C0,
4297244084,000001DA,false,Rx,0,8,C2,64,18,00,00,01,03,2C,
4297248711,0000011A,false,Rx,0,8,11,40,00,AA,C0,00,00,73,
4297249642,000001D4,false,Rx,0,8,F7,07,00,00,87,46,30,D0,
4297249855,000001F2,false,Rx,0,8,10,64,00,00,00,1E,02,0E,
4297251380,000001DB,false,Rx,0,8,FF,A0,C0,6A,00,00,00,7D,
4297251602,000001DC,false,Rx,0,8,6E,04,1F,FD,0C,C4,C0,64,
4297254078,000001DA,false,Rx,0,8,C2,64,18,00,00,01,00,26,
4297259421,0000011A,false,Rx,0,8,11,40,00,55,00,00,01,65,
4297259879,000001D4,false,Rx,0,8,F7,07,00,00,C7,46,30,17,
4297260092,000001F2,false,Rx,0,8,10,64,00,00,00,1E,03,0F,
4297260369,00000284,false,Rx,0,8,00,00,00,00,00,00,B1,37,
4297261555,000001DB,false,Rx,0,8,FF,A0,C0,6A,00,00,01,F8,
4297261769,000001DC,false,Rx,0,8,6E,04,1F,FD,01,08,D1,84,
4297262042,0000055B,false,Rx,0,8,AC,00,AA,00,E3,40,10,2C,
4297264043,000001DA,false,Rx,0,8,C2,64,18,00,00,01,01,A3,
4297267596,0000056E,false,Rx,0,1,46,00,00,00,00,00,00,00,
4297269115,0000011A,false,Rx,0,8,11,40,00,55,40,00,02,A8,
4297270112,000001D4,false,Rx,0,8,F7,07,00,00,07,46,30,DB,
4297270329,000001F2,false,Rx,0,8,10,64,00,00,00,1E,00,0C,
4297271378,000001DB,false,Rx,0,8,FF,A0,C0,6A,00,00,02,F2,
4297271600,000001DC,false,Rx,0,8,6E,04,1F,FD,04,D8,C6,8F,
4297280230,000001DA,false,Rx,0,8,C2,64,18,00,00,01,02,A9,
4297280295,0000054A,false,Rx,0,8,10,00,70,06,22,00,00,3E,
4297280359,0000054B,false,Rx,0,8,00,48,88,12,0C,00,00,00,
4297280455,0000054C,false,Rx,0,8,8F,66,40,00,00,40,7D,00,
4297280526,0000054F,false,Rx,0,8,45,01,00,00,07,80,88,33,
4297280589,0000011A,false,Rx,0,8,11,40,00,AA,80,00,03,BE,
4297280684,000001D4,false,Rx,0,8,F7,07,00,00,47,46,30,1C,
4297280747,000001F2,false,Rx,0,8,10,64,00,00,00,1E,01,0D,
4297280960,00000284,false,Rx,0,8,00,00,00,00,00,00,B2,38,
4297281355,000001DB,false,Rx,0,8,FF,A0,C0,6A,00,00,03,77,
4297281635,000001DC,false,Rx,0,8,6E,04,1F,FD,08,C0,C7,C0,
4297284049,000001DA,false,Rx,0,8,C2,64,18,00,00,01,03,2C,
4297288629,0000011A,false,Rx,0,8,11,40,00,AA,C0,00,00,73,
4297290630,000001D4,false,Rx,0,8,F7,07,00,00,87,46,30,D0,
4297290902,000001F2,false,Rx,0,8,10,64,00,00,00,1E,02,0E,
4297291116,0000050C,false,Rx,0,6,00,00,00,03,5D,F4,00,00,
4297291390,000001DB,false,Rx,0,8,FF,A0,C0,6A,00,00,00,7D,
4297291611,000001DC,false,Rx,0,8,6E,04,1F,FD,0C,C4,C0,64,
4297294083,000001DA,false,Rx,0,8,C2,64,18,00,00,01,00,26,
4297299421,0000011A,false,Rx,0,8,11,40,00,55,00,00,01,65,
4297300832,000001D4,false,Rx,0,8,F7,07,00,00,C7,46,30,17,
4297301046,000001F2,false,Rx,0,8,10,64,00,00,00,1E,03,0F,
4297301322,00000284,false,Rx,0,8,00,00,00,00,00,00,B3,39,
4297301543,000001DB,false,Rx,0,8,FF,A0,C0,6A,00,00,01,F8,
4297301814,000001DC,false,Rx,0,8,6E,04,1F,FD,01,08,D1,84,
4297302028,000005A9,false,Rx,0,8,7A,17,20,10,83,E0,00,00,
4297304089,000001DA,false,Rx,0,8,C2,64,18,00,00,01,01,A3,
4297309367,0000011A,false,Rx,0,8,11,40,00,55,40,00,02,A8,
4297311131,000001D4,false,Rx,0,8,F7,07,00,00,07,46,30,DB,
4297311363,000001F2,false,Rx,0,8,10,64,00,00,00,1E,00,0C,
4297311589,000001DB,false,Rx,0,8,FF,A0,C0,6A,00,00,02,F2,
4297311862,000001DC,false,Rx,0,8,6E,04,1F,FD,04,D8,C6,8F,
4297312016,0000050A,false,Rx,0,6,85,72,A0,1D,80,20,00,00,
4297314086,000001DA,false,Rx,0,8,C2,64,18,00,00,01,02,A9,
4297315795,00000380,false,Rx,0,8,02,04,10,21,00,00,00,9E,
4297316067,000005BF,false,Rx,0,8,00,00,00,00,28,00,00,2B,
4297319380,0000011A,false,Rx,0,8,11,40,00,AA,80,00,03,BE,
4297321385,000001DB,false,Rx,0,8,FF,A0,C0,6A,00,00,03,77,
4297321606,000001D4,false,Rx,0,8,F7,07,00,00,47,46,30,1C,
4297321820,000001DC,false,Rx,0,8,6E,04,1F,FD,08,C0,C7,C0,
4297322092,000001F2,false,Rx,0,8,10,64,00,00,00,1E,01,0D,
4297322306,00000284,false,Rx,0,8,00,00,00,00,00,00,B4,3A,
4297324071,000001DA,false,Rx,0,8,C2,64,18,00,00,01,03,2C,
4297328642,0000011A,false,Rx,0,8,11,40,00,AA,C0,00,00,73,
4297337745,000001DB,false,Rx,0,8,FF,A0,C0,6A,00,00,00,7D,
4297337809,000001DC,false,Rx,0,8,6E,04,1F,FD,0C,C4,C0,64,
4297337872,000001D4,false,Rx,0,8,F7,07,00,00,87,46,30,D0,
4297337935,000001F2,false,Rx,0,8,10,64,00,00,00,1E,02,0E,
4297337998,00000284,false,Rx,0,8,00,00,00,00,00,00,B5,3B,
4297338062,0000050B,false,Rx,0,6,00,00,06,C0,00,60,00,00,
4297338125,000001DA,false,Rx,0,8,C2,64,18,00,00,01,00,26,
4297338188,0000055A,false,Rx,0,8,00,44,41,00,5F,43,5B,08,
4297339360,0000011A,false,Rx,0,8,11,40,00,55,00,00,01,65,
4297341366,000001DB,false,Rx,0,8,FF,80,C0,6A,00,00,01,A9,
4297341588,000001DC,false,Rx,0,8,6E,04,1F,FD,01,08,D1,84,
4297341859,000001D4,false,Rx,0,8,F7,07,00,00,C7,46,30,17,
4297342072,000001F2,false,Rx,0,8,10,64,00,00,00,1E,03,0F,
4297344078,000001DA,false,Rx,0,8,C2,64,18,00,00,01,01,A3,
4297349064,0000011A,false,Rx,0,8,11,40,00,55,40,00,02,A8,
4297351366,000001DB,false,Rx,0,8,FF,80,C0,6A,00,00,02,A3,
4297351587,000001DC,false,Rx,0,8,6E,04,1F,FD,04,D8,C6,8F,
4297352036,000001D4,false,Rx,0,8,F7,07,00,00,07,46,30,DB,
4297352310,000001F2,false,Rx,0,8,10,64,00,00,00,1E,00,0C,
4297352589,00000284,false,Rx,0,8,00,00,00,00,00,00,B6,3C,
4297354050,000001DA,false,Rx,0,8,C2,64,18,00,00,01,02,A9,
4297359386,0000011A,false,Rx,0,8,11,40,00,AA,80,00,03,BE,
4297361571,000001DB,false,Rx,0,8,FF,80,C0,6A,00,00,03,26,
4297361784,000001DC,false,Rx,0,8,6E,04,1F,FD,08,C0,C7,C0,
4297361998,0000055B,false,Rx,0,8,AC,00,AA,00,E3,40,11,A9,
4297362270,000001D4,false,Rx,0,8,F7,07,00,00,47,46,30,1C,
4297362553,000001F2,false,Rx,0,8,10,64,00,00,00,1E,01,0D,
4297364074,000001DA,false,Rx,0,8,C2,64,18,00,00,01,03,2C,
4297367511,0000056E,false,Rx,0,1,46,00,00,00,00,00,00,00,
4297368617,0000011A,false,Rx,0,8,11,40,00,AA,C0,00,00,73,
4297371701,000001DB,false,Rx,0,8,FF,80,C0,6A,00,00,00,2C,
4297371914,000001DC,false,Rx,0,8,6E,04,1F,FD,0C,C4,C0,64,
4297372186,000005BC,false,Rx,0,8,25,03,2A,39,91,06,40,96,
4297372401,000005C0,false,Rx,0,8,C0,72,72,00,66,D0,00,00,
4297372622,000001D4,false,Rx,0,8,F7,07,00,00,87,46,30,D0,
4297372895,000001F2,false,Rx,0,8,10,64,00,00,00,1E,02,0E,
4297373109,00000284,false,Rx,0,8,00,00,00,00,00,00,B7,3D,
4297373324,000005B9,false,Rx,0,5,40,78,51,2C,28,00,00,00,
4297374076,000001DA,false,Rx,0,8,C2,64,18,00,00,01,00,26,
4297374289,0000054A,false,Rx,0,8,9E,00,70,06,22,00,00,3E,
4297375220,0000054B,false,Rx,0,8,00,48,88,12,0C,00,00,00,
4297376209,0000054C,false,Rx,0,8,8F,66,40,00,00,40,7D,00,
4297377201,0000054F,false,Rx,0,8,45,01,00,00,07,C0,88,33,
4297379385,0000011A,false,Rx,0,8,11,40,00,55,00,00,01,65,
4297381389,000001DB,false,Rx,0,8,FF,A0,C0,6A,00,00,01,F8,
4297381611,000001DC,false,Rx,0,8,6E,04,1F,FD,01,08,D1,84,
4297382895,000001D4,false,Rx,0,8,F7,07,00,00,C7,46,30,17,
4297383167,000001F2,false,Rx,0,8,10,64,00,00,00,1E,03,0F,
4297384038,000001DA,false,Rx,0,8,C2,64,18,00,00,01,01,A3,
4297396201,0000011A,false,Rx,0,8,11,40,00,55,40,00,02,A8,
4297396266,000001DB,false,Rx,0,8,FF,A0,C0,6A,00,00,02,F2,
4297396333,000001DC,false,Rx,0,8,6E,04,1F,FD,04,D8,C6,8F,
4297396396,000001D4,false,Rx,0,8,F7,07,00,00,07,46,30,DB,
4297396459,000001F2,false,Rx,0,8,10,64,00,00,00,1E,00,0C,
4297396531,00000284,false,Rx,0,8,00,00,00,00,00,00,B8,3E,
4297396594,0000050C,false,Rx,0,6,00,00,00,00,5D,C8,00,00,
4297396657,000001DA,false,Rx,0,8,C2,64,18,00,00,01,02,A9,
4297399377,0000011A,false,Rx,0,8,11,40,00,AA,80,00,03,BE,
4297401381,000001DB,false,Rx,0,8,FF,A0,C0,6A,00,00,03,77,
4297401602,000001DC,false,Rx,0,8,6E,04,1F,FD,08,C0,C7,C0,
4297403300,000001D4,false,Rx,0,8,F7,07,00,00,47,46,30,1C,
4297403521,000001F2,false,Rx,0,8,10,64,00,00,00,1E,01,0D,
4297404029,000001DA,false,Rx,0,8,C2,64,18,00,00,01,03,2C,
4297408596,0000011A,false,Rx,0,8,11,40,00,AA,C0,00,00,73,
4297411388,000001DB,false,Rx,0,8,FF,A0,C0,6A,00,00,00,7D,
4297411610,000001DC,false,Rx,0,8,6E,04,1F,FD,0C,C4,C0,64,
4297413570,000001D4,false,Rx,0,8,F7,07,00,00,87,46,30,D0,
4297413792,000001F2,false,Rx,0,8,10,64,00,00,00,1E,02,0E,
4297414064,00000284,false,Rx,0,8,00,00,00,00,00,00,B9,3F,
4297414278,000001DA,false,Rx,0,8,C2,64,18,00,00,01,00,26,
4297414494,0000050A,false,Rx,0,6,85,12,A0,1D,80,20,00,00,
4297415923,00000380,false,Rx,0,8,02,04,10,21,00,00,00,AF,
4297416136,000005BF,false,Rx,0,8,00,00,00,00,28,00,00,3C,
4297419333,0000011A,false,Rx,0,8,11,40,00,55,00,00,01,65,
4297421335,000001DB,false,Rx,0,8,FF,A0,C0,6A,00,00,01,F8,
4297421615,000001DC,false,Rx,0,8,6E,04,1F,FD,01,08,D1,84,
4297423795,000001D4,false,Rx,0,8,F7,07,00,00,C7,46,30,17,
4297424008,000001F2,false,Rx,0,8,10,64,00,00,00,1E,03,0F,
4297424280,000001DA,false,Rx,0,8,C2,64,18,00,00,01,01,A3,
4297429024,0000011A,false,Rx,0,8,11,40,00,55,40,00,02,A8,
4297431384,000001DB,false,Rx,0,8,FF,A0,C0,6A,00,00,02,F2,
4297431605,000001DC,false,Rx,0,8,6E,04,1F,FD,04,D8,C6,8F,
4297434022,000001D4,false,Rx,0,8,F7,07,00,00,07,46,30,DB,
4297434235,000001DA,false,Rx,0,8,C2,64,18,00,00,01,02,A9,
4297434518,000001F2,false,Rx,0,8,10,64,00,00,00,1E,00,0C,
4297434731,00000284,false,Rx,0,8,00,00,00,00,00,00,BA,40,
4297434944,0000050B,false,Rx,0,6,00,00,06,C0,00,60,00,00,
4297435157,0000055A,false,Rx,0,8,00,44,41,00,5F,43,5B,08,
4297439304,0000011A,false,Rx,0,8,11,40,00,AA,80,00,03,BE,
4297441367,000001DB,false,Rx,0,8,FF,C0,C0,6A,00,00,03,84,
4297441588,000001DC,false,Rx,0,8,6E,04,1F,FD,08,C0,C7,C0,
4297444064,000001DA,false,Rx,0,8,C2,64,18,00,00,01,03,2C,
4297444278,000001D4,false,Rx,0,8,F7,07,00,00,47,46,30,1C,
4297444493,000001F2,false,Rx,0,8,10,64,00,00,00,1E,01,0D,
4297453892,0000011A,false,Rx,0,8,11,40,00,AA,C0,00,00,73,
4297453956,000001DB,false,Rx,0,8,FF,C0,C0,6A,00,00,00,8E,
4297454052,000001DC,false,Rx,0,8,6E,04,1F,FD,0C,C4,C0,64,
4297454115,000001DA,false,Rx,0,8,C2,64,18,00,00,01,00,26,
4297454515,000001D4,false,Rx,0,8,F7,07,00,00,87,46,30,D0,
4297454728,000001F2,false,Rx,0,8,10,64,00,00,00,1E,02,0E,
4297455001,00000284,false,Rx,0,8,00,00,00,00,00,00,BB,41,
4297459327,0000011A,false,Rx,0,8,11,40,00,55,00,00,01,65,
4297461516,000001DB,false,Rx,0,8,FF,C0,C0,6A,00,00,01,0B,
